<Qucs Dataset 0.0.19>
<indep frequency 10>
  +5.60000000000000000000e+009
  +5.63333333333333301544e+009
  +5.66666666666666698456e+009
  +5.70000000000000000000e+009
  +5.73333333333333301544e+009
  +5.76666666666666698456e+009
  +5.80000000000000000000e+009
  +5.83333333333333301544e+009
  +5.86666666666666698456e+009
  +5.90000000000000000000e+009
</indep>
<dep SWR frequency>
  +1.19303940805696440108e+000
  +1.18980134811978977005e+000
  +1.19209401020874650179e+000
  +1.19962653712706712739e+000
  +1.21738989876536551904e+000
  +1.23694754534887163544e+000
  +1.25618797879430865727e+000
  +1.29062735597675382060e+000
  +1.32459278676889158355e+000
  +1.36054134371803647774e+000
</dep>
<dep ZofS11 frequency>
  +5.94885175748458578937e+001-j1.69508023092530413223e+000
  +5.94796302107378949131e+001-j4.26836829681981277940e-001
  +5.94898256675155110429e+001+j1.41974953873266618309e+000
  +5.94471334169297733752e+001+j3.08079200836935651608e+000
  +5.95390692375101338030e+001+j4.95678935249657559581e+000
  +5.95843554758632620860e+001+j6.58518287534216906209e+000
  +5.95669596240765812922e+001+j8.00522136396607209008e+000
  +5.96999585773058640825e+001+j1.00629038286393228674e+001
  +5.97893178745794173778e+001+j1.19145589394848698817e+001
  +5.98443778740528458115e+001+j1.37467626652395136233e+001
</dep>
<dep dBS21 frequency>
  -inf
  -inf
  -inf
  -inf
  -inf
  -inf
  -inf
  -inf
  -inf
  -inf
</dep>
<dep dBS11 frequency>
  -2.11080091736500108368e+001
  -2.12421085198687151774e+001
  -2.11469070457033971877e+001
  -2.08426135460316750425e+001
  -2.01720540896954503296e+001
  -1.95000717271205417092e+001
  -1.88963306721254582499e+001
  -1.79323590428063361912e+001
  -1.71001604263817554852e+001
  -1.63211307659155053784e+001
</dep>
<dep S[1,1] frequency>
  +8.68810783133175390525e-002-j1.41367320237654192638e-002
  +8.66019570651676562356e-002-j3.56113666198509771707e-003
  +8.68266706299410384595e-002+j1.18410766046252429601e-002
  +8.70402466417854459024e-002+j2.56986092216260342269e-002
  +8.89492599556295227003e-002+j4.12262641929557194231e-002
  +9.07443889763220878919e-002+j5.46393182952170514133e-002
  +9.21622374870872396180e-002+j6.63287753572616017861e-002
  +9.60291845765445239991e-002+j8.29222863661568387883e-002
  +9.97666498679836144525e-002+j9.76951448199251115678e-002
  +1.03659554362747652334e-001+j1.12174875145257188502e-001
</dep>
<dep S[2,2] frequency>
  +1.00000000000000000000e+000
  +1.00000000000000000000e+000
  +1.00000000000000000000e+000
  +1.00000000000000000000e+000
  +1.00000000000000000000e+000
  +1.00000000000000000000e+000
  +1.00000000000000000000e+000
  +1.00000000000000000000e+000
  +1.00000000000000000000e+000
  +1.00000000000000000000e+000
</dep>
