<Qucs Dataset 0.0.19>
<indep frequency 10>
  +5.60000000000000000000e+009
  +5.63333333333333301544e+009
  +5.66666666666666698456e+009
  +5.70000000000000000000e+009
  +5.73333333333333301544e+009
  +5.76666666666666698456e+009
  +5.80000000000000000000e+009
  +5.83333333333333301544e+009
  +5.86666666666666698456e+009
  +5.90000000000000000000e+009
</indep>
<dep SWR frequency>
  +1.71091007732950495246e+000
  +1.66568733263516088883e+000
  +1.59838693402971809832e+000
  +1.53631337136844603464e+000
  +1.49053996238391039952e+000
  +1.45165724009251873028e+000
  +1.41279289829372833864e+000
  +1.36243918262165708555e+000
  +1.32092829535582612088e+000
  +1.29730824816363665697e+000
</dep>
<dep ZofS11 frequency>
  +7.82418808713151179290e+001+j1.89210615048352686074e+001
  +7.88030724478083328677e+001+j1.47858676432427369463e+001
  +7.72900523265728480737e+001+j1.09986331230066305409e+001
  +7.54701124405771679449e+001+j7.59983890300544118190e+000
  +7.40535464520944657352e+001+j4.37937103208339451044e+000
  +7.25347020038717431589e+001+j1.35442884553556419647e+000
  +7.05870763747963252399e+001-j1.36022500164470017125e+000
  +6.77604400042039713981e+001-j3.35102162751932608487e+000
  +6.51386461216209369240e+001-j4.97692768006804175940e+000
  +6.30351096623532072272e+001-j6.69559642139550792450e+000
</dep>
<dep dBS21 frequency>
  -3.73728377816339607520e+000
  -3.76877532809819681958e+000
  -3.72544016652750364926e+000
  -3.67395003178561152524e+000
  -3.67798427199559885281e+000
  -3.68512996121768487967e+000
  -3.68814182597677753250e+000
  -3.67225291230987593849e+000
  -3.66803850837109912675e+000
  -3.68498875671850578684e+000
</dep>
<dep dBS11 frequency>
  -1.16260088296032648714e+001
  -1.20507783075091552405e+001
  -1.27544344343793412122e+001
  -1.34956857272812378312e+001
  -1.41123824246014972772e+001
  -1.46930155220519527148e+001
  -1.53357565769134840394e+001
  -1.62825098954509144278e+001
  -1.71850742779131238080e+001
  -1.77602462788090491586e+001
</dep>
<dep S[1,1] frequency>
  +2.36836566864978170788e-001+j1.12598646857641870866e-001
  +2.33718863889829875369e-001+j8.79647607834019296114e-002
  +2.20214540572175876409e-001+j6.73781966944119181662e-002
  +2.05910828789959754470e-001+j4.80987038142296485788e-002
  +1.94899839678419450895e-001+j2.84218583093840959641e-002
  +1.84004351222612549943e-001+j9.01955141246990610426e-003
  +1.70829240307759172568e-001-j9.35306528587376284634e-003
  +1.51505466144617295665e-001-j2.41449805527205185740e-002
  +1.33101636376564219644e-001-j3.74721312700322384259e-002
  +1.18412388736205687056e-001-j5.22205434466916917913e-002
</dep>
<dep S[1,2] frequency>
  -5.78023172466187618035e-001-j2.86566466190926960600e-001
  -5.91542607043817114665e-001-j2.66133119111707783233e-001
  -6.02645230127470177273e-001-j2.41484451895554536049e-001
  -6.15559502171254102620e-001-j2.15869129380032970245e-001
  -6.27092582906293105616e-001-j1.91227949179262834978e-001
  -6.28423660942941775254e-001-j1.71819046677694986514e-001
  -6.37509003449872602154e-001-j1.46270664432887997908e-001
  -6.45082390686927964474e-001-j1.17215995327278457716e-001
  -6.48033651026208468160e-001-j9.03903607066180309060e-002
  -6.51606767970318356831e-001-j6.58862827156546926322e-002
</dep>
<dep S[2,1] frequency>
  -5.84842724292228277605e-001-j2.84415252355404546414e-001
  -5.90904550795870453506e-001-j2.65911979495966677156e-001
  -6.05734109103407414310e-001-j2.39111247323295111888e-001
  -6.19375794406632151912e-001-j2.13353120641179810901e-001
  -6.26405524406837055373e-001-j1.90692400046402865676e-001
  -6.32127086563715856471e-001-j1.68694862964113040382e-001
  -6.37795658193385017753e-001-j1.44784532674699428778e-001
  -6.44859802025574690987e-001-j1.16058163444526324382e-001
  -6.49587161102332721896e-001-j8.81305332970891835975e-002
  -6.51043112027090864480e-001-j6.48027317773102740084e-002
</dep>
<dep S[2,2] frequency>
  +1.14538200477171350777e-001-j4.84216050805331699181e-001
  +1.13257389333692309874e-001-j4.87130316394609963471e-001
  +1.14792894327298444779e-001-j4.86470908185885564379e-001
  +1.13615212516860616954e-001-j4.84083215752828421863e-001
  +1.10588145930206854795e-001-j4.82956389500783900282e-001
  +1.16033502942265831503e-001-j4.92185956986043726680e-001
  +1.15187638169536185617e-001-j4.94638517873617566956e-001
  +1.13901098989102833592e-001-j4.94215647213771647195e-001
  +1.14533017098552736268e-001-j4.98355959069449960808e-001
  +1.12027612771875478836e-001-j5.02613934929853178879e-001
</dep>
