<Qucs Dataset 0.0.19>
<indep frequency 10>
  +5.60000000000000000000e+009
  +5.63333333333333301544e+009
  +5.66666666666666698456e+009
  +5.70000000000000000000e+009
  +5.73333333333333301544e+009
  +5.76666666666666698456e+009
  +5.80000000000000000000e+009
  +5.83333333333333301544e+009
  +5.86666666666666698456e+009
  +5.90000000000000000000e+009
</indep>
<dep SWR frequency>
  +1.33962246381236482762e+000
  +1.30319139421944885093e+000
  +1.25037928796191932790e+000
  +1.20885636625459746973e+000
  +1.16562130311156852969e+000
  +1.13426064676262683406e+000
  +1.10912820615793927814e+000
  +1.08811437783720843520e+000
  +1.08399515307040572587e+000
  +1.09277185029353662848e+000
</dep>
<dep ZofS11 frequency>
  +6.05813270081224288788e+001+j1.22001016991128761191e+001
  +6.00960055119112652733e+001+j1.04892537132560921265e+001
  +5.82340679854691174455e+001+j8.84211984939013539986e+000
  +5.68009279648020921627e+001+j7.49860272904746949507e+000
  +5.48324399297227458305e+001+j6.41605500025232000638e+000
  +5.34862517958754679626e+001+j5.50879442863617452275e+000
  +5.26295474598909294173e+001+j4.61955189194482418458e+000
  +5.05241974172366212770e+001+j4.21316548695200321362e+000
  +4.89880359946766645862e+001+j3.86236558207183744429e+000
  +4.76400917831389207890e+001+j3.63199417849369821099e+000
</dep>
<dep dBS21 frequency>
  -inf
  -inf
  -inf
  -inf
  -inf
  -inf
  -inf
  -inf
  -inf
  -inf
</dep>
<dep dBS11 frequency>
  -1.67629874861000658370e+001
  -1.76122631804676146317e+001
  -1.90731464396495873359e+001
  -2.04863951695982322576e+001
  -2.23293263512063333565e+001
  -2.40259744326653006397e+001
  -2.57233192669999475299e+001
  -2.74941500933378470961e+001
  -2.78928495734960826269e+001
  -2.70661133305581422803e+001
</dep>
<dep S[1,1] frequency>
  +1.06563137445423894434e-001+j9.85701734624827852205e-002
  +9.98723615732569069969e-002+j8.57584898731921785320e-002
  +8.22018554254312916463e-002+j7.49789908383166475714e-002
  +6.82715848766091704114e-002+j6.54176079694541168230e-002
  +4.96565969885581770527e-002+j5.81638235925440727492e-002
  +3.64185298719031380621e-002+j5.12935017170104631812e-002
  +2.75919076133323559752e-002+j4.37699449535511181386e-002
  +6.95902670528192324184e-003+j4.16202870881826059168e-002
  -8.68742391728632989967e-003+j3.93574794171726444203e-002
  -2.27543002032553620673e-002+j3.80441844792395594821e-002
</dep>
<dep S[2,2] frequency>
  +1.00000000000000000000e+000
  +1.00000000000000000000e+000
  +1.00000000000000000000e+000
  +1.00000000000000000000e+000
  +1.00000000000000000000e+000
  +1.00000000000000000000e+000
  +1.00000000000000000000e+000
  +1.00000000000000000000e+000
  +1.00000000000000000000e+000
  +1.00000000000000000000e+000
</dep>
