<Qucs Dataset 0.0.19>
<indep frequency 10>
  +5.60000000000000000000e+009
  +5.63333333333333301544e+009
  +5.66666666666666698456e+009
  +5.70000000000000000000e+009
  +5.73333333333333301544e+009
  +5.76666666666666698456e+009
  +5.80000000000000000000e+009
  +5.83333333333333301544e+009
  +5.86666666666666698456e+009
  +5.90000000000000000000e+009
</indep>
<dep SWR frequency>
  +1.73975252105148392445e+000
  +1.75410094683809525407e+000
  +1.71629670411082368986e+000
  +1.69087271012650797175e+000
  +1.69778847158762857816e+000
  +1.71904261674566605222e+000
  +1.74372845075923987856e+000
  +1.75000515685533586385e+000
  +1.76800065173421661058e+000
  +1.81221462336927752190e+000
</dep>
<dep ZofS11 frequency>
  +7.55667986798764559353e+001-j2.31258293710647926389e+001
  +7.12165800166829114914e+001-j2.65377952717626897083e+001
  +6.52502983764506012676e+001-j2.72533660203663963273e+001
  +5.98503048734610558768e+001-j2.73442594447521187817e+001
  +5.56515009445534118981e+001-j2.76780640072247443584e+001
  +5.18225432418310347771e+001-j2.78566025288903347246e+001
  +4.80647123387318089272e+001-j2.75425201436347286688e+001
  +4.43313763722714213600e+001-j2.60833846179273756150e+001
  +4.11683924081633350056e+001-j2.46721454063571776771e+001
  +3.85447999029731676046e+001-j2.38818585987710996221e+001
</dep>
<dep dBS21 frequency>
  -1.33464337267733634818e+000
  -1.35202048510104377854e+000
  -1.31321319141696024602e+000
  -1.26819715632680862782e+000
  -1.27710880066636445207e+000
  -1.28797420928463379752e+000
  -1.29662979083653695511e+000
  -1.29930854942227380633e+000
  -1.31478704528723167044e+000
  -1.34430779996234184281e+000
</dep>
<dep dBS11 frequency>
  -1.13724976266926507407e+001
  -1.12510073689664142904e+001
  -1.15776850764152570150e+001
  -1.18099023222215571138e+001
  -1.17456820887479373994e+001
  -1.15532276659713932787e+001
  -1.13385346248969689498e+001
  -1.12853851744145572411e+001
  -1.11360919892343588344e+001
  -1.07875531563716116068e+001
</dep>
<dep S[1,1] frequency>
  +2.29737778831230865517e-001-j1.41860371411866359459e-001
  +2.12762484049421718435e-001-j1.72348931356355539180e-001
  +1.78273094242533736153e-001-j1.94314673774131807527e-001
  +1.42785513845851169679e-001-j2.13380339146075570511e-001
  +1.14279745160540402438e-001-j2.32036664758862420932e-001
  +8.62869500128299327102e-002-j2.49973536788423600363e-001
  +5.48232997612245337438e-002-j2.65462954866985456626e-001
  +1.52017602566667658914e-002-j2.72304637609780852969e-001
  -2.20224335294507619909e-002-j2.76581449146401703310e-001
  -5.27856754456103305362e-002-j2.83952063400163101647e-001
</dep>
<dep S[1,2] frequency>
  -7.72276263214323299700e-001-j3.56869822824700588804e-001
  -7.91631356049011913889e-001-j3.27604807580406331979e-001
  -8.06754483474478756300e-001-j2.89289507214406771407e-001
  -8.23533109203590130143e-001-j2.49459815933988249270e-001
  -8.37730188682276444290e-001-j2.12810981048480146738e-001
  -8.38608329915871086868e-001-j1.83962013793996931321e-001
  -8.48931881122263254369e-001-j1.46001909253678591183e-001
  -8.55515620646512431335e-001-j1.02389553904544572394e-001
  -8.55622243443305841026e-001-j6.26814573472256469922e-002
  -8.57048427660825562491e-001-j2.74784431563603361026e-002
</dep>
<dep S[2,1] frequency>
  -7.81187867610045993949e-001-j3.53787928885143543312e-001
  -7.90780123599577833282e-001-j3.27338469702693535268e-001
  -8.10714082428352411647e-001-j2.86008647038707597421e-001
  -8.28419409121829208864e-001-j2.45926759840705777549e-001
  -8.36792062686165349916e-001-j2.12148457889802299903e-001
  -8.43272810536516703728e-001-j1.79601701420916776142e-001
  -8.49200799148309037889e-001-j1.44026866861689278876e-001
  -8.55131444106698945795e-001-j1.00888501645591460720e-001
  -8.57460984416716032186e-001-j5.95915147510314574530e-002
  -8.56214768306099105466e-001-j2.61137898968464877980e-002
</dep>
<dep S[2,2] frequency>
  +7.50525847756391972787e-003-j3.54697456919397358099e-001
  +1.19550217456445562192e-002-j3.54626073092228433215e-001
  +2.25677029941536988478e-002-j3.48723259541237950998e-001
  +3.03505621237111777866e-002-j3.41185590306721742149e-001
  +3.47963766452485667724e-002-j3.37389762209569621376e-001
  +4.65934156194470761037e-002-j3.47088157669067476352e-001
  +5.36565905915204616194e-002-j3.47804753692946888588e-001
  +6.18987075149879245606e-002-j3.45508078361380366328e-001
  +7.13031210289172823202e-002-j3.49673643451507920599e-001
  +7.55695840887783965023e-002-j3.54771765873051425633e-001
</dep>
