<Qucs Dataset 0.0.19>
<indep frequency 10>
  +5.60000000000000000000e+009
  +5.63333333333333301544e+009
  +5.66666666666666698456e+009
  +5.70000000000000000000e+009
  +5.73333333333333301544e+009
  +5.76666666666666698456e+009
  +5.80000000000000000000e+009
  +5.83333333333333301544e+009
  +5.86666666666666698456e+009
  +5.90000000000000000000e+009
</indep>
<dep SWR frequency>
  +1.60052060039955645898e+000
  +1.55114098652262555333e+000
  +1.50808791265864572395e+000
  +1.46845079468993677807e+000
  +1.42813201945016698957e+000
  +1.38979743867088223475e+000
  +1.35336397895723159479e+000
  +1.31808771383626477380e+000
  +1.28639341995722134016e+000
  +1.25503390586152474562e+000
</dep>
<dep ZofS11 frequency>
  +6.50000699324123303313e+001+j2.25228758747857327194e+001
  +6.53193399913981380678e+001+j2.01217459520081938251e+001
  +6.47462254682973537001e+001+j1.83496398888473422062e+001
  +6.40927133728588813710e+001+j1.67421044536800280866e+001
  +6.36457541924519389909e+001+j1.49074388780230542295e+001
  +6.31510176145285342386e+001+j1.31246152413642906964e+001
  +6.24541961076576868095e+001+j1.15327856574665048583e+001
  +6.13457543574571033673e+001+j1.03308630137292176698e+001
  +6.03369273758911717209e+001+j9.24682689789007916659e+000
  +5.95210722048199585288e+001+j7.97392902671045611385e+000
</dep>
<dep dBS21 frequency>
  -5.47927950535855856629e+000
  -5.53477103837145989473e+000
  -5.51611633645771526346e+000
  -5.48745224415802113072e+000
  -5.50868200141127140057e+000
  -5.53197469481220505116e+000
  -5.55166255419757703748e+000
  -5.55120562046447929561e+000
  -5.55885812339078633215e+000
  -5.58522026722526199194e+000
</dep>
<dep dBS11 frequency>
  -1.27306477663337780371e+001
  -1.33094350181140193001e+001
  -1.38680778388605148166e+001
  -1.44352098904268100199e+001
  -1.50738917319263503458e+001
  -1.57504422050266867927e+001
  -1.64693365048579458687e+001
  -1.72516594076460734186e+001
  -1.80437585197085326172e+001
  -1.89311030791584258282e+001
</dep>
<dep S[1,1] frequency>
  +1.62557595997929349441e-001+j1.64013911719411320522e-001
  +1.58463980967109452358e-001+j1.46837243308080234172e-001
  +1.50242321460370198416e-001+j1.35888978747219446586e-001
  +1.41995242359528317522e-001+j1.25904668663865682010e-001
  +1.34957314949706808083e-001+j1.13471647453105506376e-001
  +1.27957942517531897408e-001+j1.01149920875970245060e-001
  +1.20004506817836920085e-001+j9.02482944495062722190e-002
  +1.09561913063173740901e-001+j8.26164765009325119394e-002
  +1.00006074989492668714e-001+j7.54243228595036785400e-002
  +9.17482504417279354225e-002+j6.61273200085100154588e-002
</dep>
<dep S[1,2] frequency>
  -5.22171598924504154482e-001-j7.76887815358370675822e-002
  -5.26176642014563489269e-001-j5.75299036664702265198e-002
  -5.27012996381051368466e-001-j3.65440029174959393754e-002
  -5.29197660021755389437e-001-j1.45185642163421172596e-002
  -5.30965221581249591232e-001+j7.10975135963648821602e-003
  -5.26231446458726548343e-001+j2.22580399426464715928e-002
  -5.25963661464352916219e-001+j4.37185718069290560339e-002
  -5.23888441102541846384e-001+j6.66123365508001080704e-002
  -5.19102484454372015144e-001+j8.67971832180917529653e-002
  -5.15439625810206858425e-001+j1.06062416187328395489e-001
</dep>
<dep S[2,1] frequency>
  -5.26940227888453960325e-001-j7.42978634206832438958e-002
  -5.25625699064350304646e-001-j5.75190140897222923488e-002
  -5.28812612009504579014e-001-j3.39348246399958641817e-002
  -5.31524713021156447468e-001-j1.16294889091816469606e-002
  -5.30303080977947982610e-001+j7.35350062905144354064e-003
  -5.28315068228965012409e-001+j2.55750388806945429254e-002
  -5.25819980705141132304e-001+j4.49313659047779409561e-002
  -5.23436354325372499297e-001+j6.74475101587839881434e-002
  -5.19750112362591387694e-001+j8.89058108171702637934e-002
  -5.14747078541068936453e-001+j1.06757763498292329585e-001
</dep>
<dep S[2,2] frequency>
  +2.46542343956831250251e-001-j5.22640880286275311128e-001
  +2.42410607496271024441e-001-j5.29824929373192476945e-001
  +2.40511715312662605060e-001-j5.35737402269072182648e-001
  +2.36112768744814988109e-001-j5.39883084775716781678e-001
  +2.29549573512991461621e-001-j5.43519601114496819783e-001
  +2.30708799180247836613e-001-j5.55010068477642670715e-001
  +2.25705391366338770087e-001-j5.61849596898766678876e-001
  +2.19593094488792994756e-001-j5.66577462757519745296e-001
  +2.15009716041998644176e-001-j5.74474348043887084181e-001
  +2.07926991247840642352e-001-j5.81301175148185134134e-001
</dep>
