<Qucs Dataset 0.0.19>
<indep frequency 10>
  +5.60000000000000000000e+009
  +5.63333333333333301544e+009
  +5.66666666666666698456e+009
  +5.70000000000000000000e+009
  +5.73333333333333301544e+009
  +5.76666666666666698456e+009
  +5.80000000000000000000e+009
  +5.83333333333333301544e+009
  +5.86666666666666698456e+009
  +5.90000000000000000000e+009
</indep>
<dep SWR frequency>
  +3.35968952856287739195e+000
  +3.54061374262687111880e+000
  +3.78879935764305608714e+000
  +4.06382986431000947647e+000
  +4.34030987308398685798e+000
  +4.64235028931600091084e+000
  +4.98175069314561369538e+000
  +5.34047639193246581613e+000
  +5.74183330507604861026e+000
  +6.21397428181802879976e+000
</dep>
<dep ZofS11 frequency>
  +3.11642541109909672059e+001+j4.71984831648586862229e+001
  +3.20001423559342867975e+001+j5.09205178965598861396e+001
  +3.28562577079278312908e+001+j5.54828978945572899306e+001
  +3.36459992874005564545e+001+j6.01539413606075044072e+001
  +3.50745452549660754471e+001+j6.54641260676615104330e+001
  +3.65014286700609389413e+001+j7.09464715761785527093e+001
  +3.78955086161467704642e+001+j7.67044492121126353368e+001
  +4.02894787100445199712e+001+j8.37389817138739545044e+001
  +4.28169101388342880909e+001+j9.12794651293984458107e+001
  +4.54893605885380196696e+001+j9.96505323920597732013e+001
</dep>
<dep dBS21 frequency>
  -inf
  -inf
  -inf
  -inf
  -inf
  -inf
  -inf
  -inf
  -inf
  -inf
</dep>
<dep dBS11 frequency>
  -5.33201394344492030086e+000
  -5.04351832630223650966e+000
  -4.69618743016222239817e+000
  -4.36428921292350846528e+000
  -4.07559401236454910133e+000
  -3.80156668989248425206e+000
  -3.53508488503914541923e+000
  -3.29168982851481572993e+000
  -3.05663455024378194480e+000
  -2.82011410088928782258e+000
</dep>
<dep S[1,1] frequency>
  +7.92831706586161477635e-002+j5.35413504938335504946e-001
  +1.19879526200089792098e-001+j5.46537957735798718417e-001
  +1.66730399617606439566e-001+j5.57980935122916132940e-001
  +2.12013015300615670355e-001+j5.66680095573543374243e-001
  +2.61712689324011760217e-001+j5.68105694075707212676e-001
  +3.08867635223237957387e-001+j5.66850784164939280885e-001
  +3.54146062519751170239e-001+j5.63622320706339552387e-001
  +4.04596048062357216413e-001+j5.52207426114288746355e-001
  +4.52308074047889918656e-001+j5.38619805182264821397e-001
  +4.98702636305772717407e-001+j5.23142566574710254912e-001
</dep>
<dep S[2,2] frequency>
  +1.00000000000000000000e+000
  +1.00000000000000000000e+000
  +1.00000000000000000000e+000
  +1.00000000000000000000e+000
  +1.00000000000000000000e+000
  +1.00000000000000000000e+000
  +1.00000000000000000000e+000
  +1.00000000000000000000e+000
  +1.00000000000000000000e+000
  +1.00000000000000000000e+000
</dep>
