<Qucs Dataset 0.0.19>
<indep frequency 10>
  +5.60000000000000000000e+009
  +5.63333333333333301544e+009
  +5.66666666666666698456e+009
  +5.70000000000000000000e+009
  +5.73333333333333301544e+009
  +5.76666666666666698456e+009
  +5.80000000000000000000e+009
  +5.83333333333333301544e+009
  +5.86666666666666698456e+009
  +5.90000000000000000000e+009
</indep>
<dep SWR frequency>
  +5.25449958410682960164e+000
  +5.22822460742499295350e+000
  +5.20232536181736460179e+000
  +5.17679542163800743282e+000
  +5.15162848895111658010e+000
  +5.12681839087767521335e+000
  +5.10235907699030999396e+000
  +5.07824461675608063160e+000
  +5.05446919702705077526e+000
  +5.03102711957835158074e+000
</dep>
<dep ZofS11 frequency>
  +1.21051166705652786248e+001+j2.54749048642899467154e+001
  +1.21879511395722399669e+001+j2.55749941747137654602e+001
  +1.22707287894527183880e+001+j2.56745093914008144509e+001
  +1.23534453620831019549e+001+j2.57734538196567868340e+001
  +1.24360966624201410013e+001+j2.58718307875913922089e+001
  +1.25186785582734216860e+001+j2.59696436451009411428e+001
  +1.26011869800642379857e+001+j2.60668957628648811919e+001
  +1.26836179205711694351e+001+j2.61635905313560783725e+001
  +1.27659674346629685715e+001+j2.62597313598651780353e+001
  +1.28482316390188504585e+001+j2.63553216755388852732e+001
</dep>
<dep dBS21 frequency>
  -3.46363450450894960753e+000
  -3.44151725526989338277e+000
  -3.41968346917994425738e+000
  -3.39812884117377489446e+000
  -3.37684914413360637298e+000
  -3.35584022725782249452e+000
  -3.33509801446938025649e+000
  -3.31461850286273440602e+000
  -3.29439776118829552587e+000
  -3.27443192837323193700e+000
</dep>
<dep dBS11 frequency>
  -3.34688164877183780277e+000
  -3.36412433344602179730e+000
  -3.38129740892758201554e+000
  -3.39840026769067371504e+000
  -3.41543232141085706388e+000
  -3.43239300065083741131e+000
  -3.44928175454890872942e+000
  -3.46609805051026009792e+000
  -3.48284137390112391586e+000
  -3.49951122774584222341e+000
</dep>
<dep S[1,1] frequency>
  -3.78271018377010492806e-001+j5.65353145645137722397e-001
  -3.75407045041936393570e-001+j5.65640554483939794750e-001
  -3.72562115380651426300e-001+j5.65913706273987848760e-001
  -3.69736157453969482845e-001+j5.66172909840865656861e-001
  -3.66929096701331336483e-001+j5.66418469106156008408e-001
  -3.64140856054092520999e-001+j5.66650683130275112376e-001
  -3.61371356045849245753e-001+j5.66869846156402013015e-001
  -3.58620514919854804781e-001+j5.67076247655415199844e-001
  -3.55888248733565670801e-001+j5.67270172371759251462e-001
  -3.53174471460374228560e-001+j5.67451900370163353493e-001
</dep>
<dep S[1,2] frequency>
  +5.70944723051624136723e-001+j3.52791309542030417923e-001
  +5.73504720994579386684e-001+j3.51897311460842132647e-001
  +5.76044609486151881761e-001+j3.50989786961795502407e-001
  +5.78564460267529945270e-001+j3.50069041645355849557e-001
  +5.81064347658292623677e-001+j3.49135376296118626893e-001
  +5.83544348445227401001e-001+j3.48189086924825252911e-001
  +5.86004541774049259040e-001+j3.47230464811450534324e-001
  +5.88445009043980671315e-001+j3.46259796549281628764e-001
  +5.90865833805140683310e-001+j3.45277364089907223832e-001
  +5.93267101658701001554e-001+j3.44283444789045378620e-001
</dep>
<dep S[2,1] frequency>
  +5.70944723051624136723e-001+j3.52791309542030417923e-001
  +5.73504720994579386684e-001+j3.51897311460842132647e-001
  +5.76044609486151881761e-001+j3.50989786961795502407e-001
  +5.78564460267529945270e-001+j3.50069041645355849557e-001
  +5.81064347658292623677e-001+j3.49135376296118626893e-001
  +5.83544348445227401001e-001+j3.48189086924825252911e-001
  +5.86004541774049259040e-001+j3.47230464811450534324e-001
  +5.88445009043980671315e-001+j3.46259796549281628764e-001
  +5.90865833805140683310e-001+j3.45277364089907223832e-001
  +5.93267101658701001554e-001+j3.44283444789045378620e-001
</dep>
<dep S[2,2] frequency>
  -4.03471387927710145593e-001+j5.52459851834973147966e-001
  -4.00703368872052267946e-001+j5.52783138285530051270e-001
  -3.97953633328677058856e-001+j5.53092677059654369565e-001
  -3.95222112059705477094e-001+j5.53388765453437514452e-001
  -3.92508733303138013238e-001+j5.53671696040669347738e-001
  -3.89813422881948978826e-001+j5.53941756714081856572e-001
  -3.87136104310331297107e-001+j5.54199230727648206596e-001
  -3.84476698897136481836e-001+j5.54444396739852463085e-001
  -3.81835125846553380402e-001+j5.54677528857854151845e-001
  -3.79211302356075807829e-001+j5.54898896682474496167e-001
</dep>
