<Qucs Dataset 0.0.19>
<indep frequency 10>
  +5.60000000000000000000e+009
  +5.63333333333333301544e+009
  +5.66666666666666698456e+009
  +5.70000000000000000000e+009
  +5.73333333333333301544e+009
  +5.76666666666666698456e+009
  +5.80000000000000000000e+009
  +5.83333333333333301544e+009
  +5.86666666666666698456e+009
  +5.90000000000000000000e+009
</indep>
<dep SWR frequency>
  +1.93842626336597922965e+000
  +1.93197655770421916621e+000
  +1.92562495286257995275e+000
  +1.91936934860485841625e+000
  +1.91320770277456886355e+000
  +1.90713802933583198573e+000
  +1.90115839649187901017e+000
  +1.89526692487764480965e+000
  +1.88946178582311796745e+000
  +1.88374119968427078398e+000
</dep>
<dep ZofS11 frequency>
  +6.29999999999999928946e+001-j3.55256569401552084742e+001
  +6.30000000000000071054e+001-j3.53154459523436372592e+001
  +6.29999999999999928946e+001-j3.51077080349769090617e+001
  +6.30000000000000000000e+001-j3.49023998008542406524e+001
  +6.30000000000000071054e+001-j3.46994788717795188404e+001
  +6.29999999999999928946e+001-j3.44989038493992694612e+001
  +6.29999999999999857891e+001-j3.43006342870464138173e+001
  +6.29999999999999928946e+001-j3.41046306625489989983e+001
  +6.30000000000000000000e+001-j3.39108543519663356847e+001
  +6.30000000000000000000e+001-j3.37192676042151191496e+001
</dep>
<dep dBS21 frequency>
  -1.47090862519784382201e+000
  -1.46629688596722163041e+000
  -1.46176151708093104986e+000
  -1.45730086565196659265e+000
  -1.45291332263364636468e+000
  -1.44859732145149378013e+000
  -1.44435133668393334005e+000
  -1.44017388278990488004e+000
  -1.43606351288147315870e+000
  -1.43201881753966686617e+000
</dep>
<dep dBS11 frequency>
  -9.91429286660092756733e+000
  -9.95511010163722609434e+000
  -9.99567195450699053083e+000
  -1.00359804691377956232e+001
  -1.00760376710300665337e+001
  -1.01158455673288205645e+001
  -1.01554061469025427300e+001
  -1.01947213804287741823e+001
  -1.02337932204858166330e+001
  -1.02726236016501673021e+001
</dep>
<dep S[1,1] frequency>
  +1.94644588983351768396e-001-j2.53192743775886186519e-001
  +1.93788934127541334629e-001-j2.51961976309735991020e-001
  +1.92946562272162946972e-001-j2.50741561596224127317e-001
  +1.92117209464197857827e-001-j2.49531399535489806230e-001
  +1.91300618013365342218e-001-j2.48331390432445814342e-001
  +1.90496536323284115788e-001-j2.47141435036625667365e-001
  +1.89704718727583210303e-001-j2.45961434579155563407e-001
  +1.88924925330811288582e-001-j2.44791290807009176422e-001
  +1.88156921854000569461e-001-j2.43630906014699222251e-001
  +1.87400479484743420766e-001-j2.42480183073547128636e-001
</dep>
<dep S[1,2] frequency>
  +8.05355411016648203848e-001+j2.53192743775886186519e-001
  +8.06211065872458720882e-001+j2.51961976309735991020e-001
  +8.07053437727837108540e-001+j2.50741561596224127317e-001
  +8.07882790535802031151e-001+j2.49531399535489806230e-001
  +8.08699381986634713293e-001+j2.48331390432445786587e-001
  +8.09503463676715884212e-001+j2.47141435036625667365e-001
  +8.10295281272416789697e-001+j2.45961434579155563407e-001
  +8.11075074669188822440e-001+j2.44791290807009148667e-001
  +8.11843078145999430539e-001+j2.43630906014699222251e-001
  +8.12599520515256634745e-001+j2.42480183073547100880e-001
</dep>
<dep S[2,1] frequency>
  +8.05355411016648203848e-001+j2.53192743775886186519e-001
  +8.06211065872458720882e-001+j2.51961976309735991020e-001
  +8.07053437727837108540e-001+j2.50741561596224127317e-001
  +8.07882790535802031151e-001+j2.49531399535489806230e-001
  +8.08699381986634713293e-001+j2.48331390432445786587e-001
  +8.09503463676715884212e-001+j2.47141435036625667365e-001
  +8.10295281272416789697e-001+j2.45961434579155563407e-001
  +8.11075074669188822440e-001+j2.44791290807009148667e-001
  +8.11843078145999430539e-001+j2.43630906014699222251e-001
  +8.12599520515256634745e-001+j2.42480183073547100880e-001
</dep>
<dep S[2,2] frequency>
  +1.94644588983351740641e-001-j2.53192743775886186519e-001
  +1.93788934127541334629e-001-j2.51961976309736046531e-001
  +1.92946562272162946972e-001-j2.50741561596224071806e-001
  +1.92117209464197857827e-001-j2.49531399535489806230e-001
  +1.91300618013365314463e-001-j2.48331390432445786587e-001
  +1.90496536323284115788e-001-j2.47141435036625667365e-001
  +1.89704718727583210303e-001-j2.45961434579155507896e-001
  +1.88924925330811260826e-001-j2.44791290807009120911e-001
  +1.88156921854000569461e-001-j2.43630906014699194495e-001
  +1.87400479484743420766e-001-j2.42480183073547128636e-001
</dep>
