#  HZ   S   DB   R     50.00 
! Rohde & Schwarz ZVA24 4Ports - Version 2.90 - 1145.1110k26 SN: 100216
! Date: 2012-03-15 14:38:24
! Measurements: S11 S21 S12 S22 
! 
 1.000000000000000E7    -1.961164988810642E1   1.763440968916502E2   1.164802250753684E-1  -1.504802315471944  -5.348720730590179E-4  -4.057593160704961E-1  -2.058928510132803E1   1.691225477667021E2  
 2.000000000000000E7    -2.268970867753752E1   1.676477018276529E2  -1.361961564199024E-1  -5.987022979966302E-2  -6.036024971284001E-2  -4.933511217284891E-1  -2.108837138779427E1   1.752047943060994E2  
 3.000000000000000E7    -2.434693593010623E1   1.645122666801768E2  -5.826054512058436E-2  -2.643745319832797E-1  -2.205016155575412E-2  -1.459697440290584E-3  -2.226349705363094E1   1.618285540508566E2  
 4.000000000000000E7    -2.609372469809846E1   1.429555679797563E2  -6.473401515822078E-2   7.151877106113130E-2  -3.864518966675737E-2   1.349098362382821E-1  -2.594659512014566E1   1.660883951199377E2  
 5.000000000000000E7    -2.766097777114515E1   1.529522452621125E2  -3.115777413970221E-2   8.735173011649937E-2   9.669867414018410E-3   6.998644266731213E-2  -2.672885179526071E1   1.696141392627605E2  
 6.000000000000000E7    -2.827124067599716E1   1.659429980289972E2  -4.659342301829965E-2  -5.499836039496360E-2  -4.343841262698030E-2   2.174355946911855E-1  -3.101817226082338E1   1.670514632176666E2  
 7.000000000000000E7    -3.311223467499547E1   1.626784464010935E2  -3.782252160830214E-2   1.554713838794486E-1  -4.086107821634784E-2   3.726041551718099E-2  -2.992750499370801E1   1.774005432396780E2  
 8.000000000000000E7    -3.175414988146928E1   1.510197966020731E2  -4.398298730957545E-2   1.006830127935089E-1  -1.654591566623136E-2  -1.938333983422285E-1  -3.120982518119311E1   1.790040243421449E2  
 9.000000000000000E7    -3.551212710521602E1   1.633785491252170E2  -3.410655050450691E-2   2.432569326399009E-1  -6.014933925983637E-3  -4.025008957883816E-2  -3.352442468696049E1   1.749176051317241E2  
 1.000000000000000E8    -3.649897049530667E1   1.686701516153812E2  -2.705483471842305E-2  -2.856843286780726E-2  -6.463321116136048E-3   6.972108207289823E-2  -3.588280655995118E1   1.732389902275075E2  
 1.100000000000000E8    -3.845707858338803E1   1.746787617888512E2  -3.204489979533459E-2   1.297823706393457E-2  -1.330247554220094E-2  -1.042048654377882E-1  -3.455272755928716E1  -1.771916570105329E2  
 1.200000000000000E8    -3.921068607681881E1   1.761378644038531E2  -4.055653384189205E-2  -8.828061866580676E-2  -1.665088808694244E-2   7.646968705088365E-3  -3.760312739042371E1  -1.714791054734367E2  
 1.300000000000000E8    -4.119404600244644E1  -1.613981085090614E2  -2.449769118438756E-2   8.459924309489943E-3  -2.144354543806996E-2  -1.038157689510196E-1  -3.725481343813339E1  -1.549237205900788E2  
 1.400000000000000E8    -4.184478949388419E1  -1.391569473010901E2  -3.547863465768234E-2  -1.036964988129368E-1  -1.627743775817105E-2  -7.649669341123006E-2  -3.890583407714338E1  -1.449289299889267E2  
 1.500000000000000E8    -4.160763903078511E1  -1.336189876865804E2  -1.924866290544723E-2  -1.233769839985913E-1  -2.547921738839088E-2  -2.134447700832023E-1  -3.928770740832778E1  -1.556159656675720E2  
 1.600000000000000E8    -4.307455215999389E1  -1.296586673523529E2  -1.270990021737038E-2  -1.882560980001512E-1  -1.585703793888339E-3  -1.486106787122039E-1  -3.867074752249341E1  -1.350780703504402E2  
 1.700000000000000E8    -4.180207292162449E1  -1.100979406211933E2  -3.491565774976813E-2  -1.189508351371307E-1   1.052006187130704E-2  -2.025126373186870E-1  -4.085705223813116E1  -1.363301213973174E2  
 1.800000000000000E8    -4.085939809718984E1  -1.085575339288268E2  -1.989096740112343E-2  -1.312019041125525E-1  -3.914333779589203E-3  -2.238843681450684E-1  -3.916351867108145E1  -1.303124921087616E2  
 1.900000000000000E8    -4.013524352690176E1  -1.000336377993878E2  -2.913999001603989E-2  -2.027382324618267E-1  -1.687978689523528E-2  -2.534900996447894E-1  -3.924019544313437E1  -1.174025929973816E2  
 2.000000000000000E8    -3.904786834301233E1  -1.059591075547329E2  -1.011171505856330E-2  -1.327735465362160E-1  -1.460931847587858E-2  -2.900649204690239E-1  -3.955607931416735E1  -1.283124692875238E2  
 2.100000000000000E8    -3.960835092507853E1  -1.079740834980657E2  -2.261595753064322E-2  -2.349618343299953E-1  -1.603413236152217E-2  -2.052480287735988E-1  -3.909758728015336E1  -1.018473336601395E2  
 2.200000000000000E8    -3.822107359376455E1  -9.952798084841190E1  -1.903567135125366E-2  -2.486638669445463E-1  -1.633806342041579E-2  -2.513086202865063E-1  -3.767961883764611E1  -1.089320714417515E2  
 2.300000000000000E8    -3.698793987412945E1  -9.248906460559726E1  -2.458392143243784E-2  -3.443576806769133E-1  -1.044121403091462E-2  -3.046614570788129E-1  -3.736903320439898E1  -1.029632049386881E2  
 2.400000000000000E8    -3.641627708749139E1  -9.086875195584966E1  -2.533435628691964E-2  -3.016223694915038E-1  -1.255077533721556E-2  -3.392394227734784E-1  -3.675475120833706E1  -1.040309985525105E2  
 2.500000000000000E8    -3.651465636163744E1  -8.586115295247778E1  -2.522647383735108E-2  -3.412899629702278E-1  -2.359779458623354E-3  -3.498041830776327E-1  -3.559658732459968E1  -1.022065805775248E2  
 2.600000000000000E8    -3.509686483586643E1  -9.028320843750250E1  -2.846879842813626E-2  -3.835008900387376E-1  -1.827269359632548E-2  -3.714719286276433E-1  -3.520339828357012E1  -9.623090774482542E1  
 2.700000000000000E8    -3.472077838974688E1  -8.698074328769339E1  -1.741896851769463E-2  -3.656340137427743E-1  -1.187465373165938E-2  -3.610372405578365E-1  -3.425499834275741E1  -9.544259385002199E1  
 2.800000000000000E8    -3.411404343201908E1  -8.674026420332396E1  -1.824689546536687E-2  -3.887290414051692E-1  -1.677588890972826E-2  -3.890512536671827E-1  -3.440550299579598E1  -9.542180426515891E1  
 2.900000000000000E8    -3.389417609063717E1  -9.012897874967989E1  -1.725223881859322E-2  -4.242305831377050E-1  -1.357702101099474E-2  -3.962261692856199E-1  -3.358312010473923E1  -9.455225016947894E1  
 3.000000000000000E8    -3.350550305160113E1  -9.178410558685474E1  -2.626325610749121E-2  -4.558900077914311E-1  -1.839566507326337E-2  -4.758011470387696E-1  -3.366728030074594E1  -9.478990797399129E1  
 3.100000000000000E8    -3.306202177562704E1  -8.962112428345624E1  -2.119749154869002E-2  -5.267016337423863E-1  -1.313336525367193E-2  -4.995763946355961E-1  -3.346502847927717E1  -9.258492446227605E1  
 3.200000000000000E8    -3.292160138986466E1  -8.883103373134766E1  -1.858213663477782E-2  -4.836161024179936E-1  -1.009814659201202E-2  -5.353100996668592E-1  -3.308769642119094E1  -9.479270089895100E1  
 3.300000000000000E8    -3.277922775783046E1  -8.542104256247315E1  -1.895638570573110E-2  -5.160149563771999E-1  -1.388554187760752E-2  -5.319888933590236E-1  -3.300514897829458E1  -8.915290528914380E1  
 3.400000000000000E8    -3.235856441164034E1  -8.250782322463078E1  -2.661573210492036E-2  -5.604157670054917E-1  -1.428770771822396E-2  -5.312974827080039E-1  -3.249040952736378E1  -8.533606792224803E1  
 3.500000000000000E8    -3.185557531748273E1  -8.300559500167368E1  -2.363924278891065E-2  -5.476768461455015E-1  -1.364294358803770E-2  -5.264791825359427E-1  -3.219635745567168E1  -8.524275093156088E1  
 3.600000000000000E8    -3.187083709470197E1  -8.592243778166366E1  -2.428462954106716E-2  -6.043947700289253E-1  -1.403224218078739E-2  -5.119369851475027E-1  -3.213269252243802E1  -8.536677366287350E1  
 3.700000000000000E8    -3.176126691800069E1  -8.485598053134065E1  -2.249378117932272E-2  -6.251421633471462E-1  -1.950121355804108E-2  -5.997438143324727E-1  -3.181122807941253E1  -8.506316668379741E1  
 3.800000000000000E8    -3.141640181355981E1  -8.607066100382460E1  -2.376869459994994E-2  -6.331115446102995E-1  -1.293411059238173E-2  -5.757743817699276E-1  -3.124962018196851E1  -8.516599282347048E1  
 3.900000000000000E8    -3.099571328603234E1  -8.624465256210173E1  -3.011534756105508E-2  -6.824734560860803E-1  -1.185993170677402E-2  -6.190496285553967E-1  -3.065078494029203E1  -8.595634604789106E1  
 4.000000000000000E8    -3.045713124737860E1  -8.548209390603674E1  -2.003719278218111E-2  -6.763589268512823E-1  -2.171298889309959E-2  -6.328738045935312E-1  -3.031444227270126E1  -8.731903101241267E1  
 4.100000000000000E8    -3.011004208501737E1  -8.384910641438175E1  -2.128184527976533E-2  -6.987743446234036E-1  -1.269440021813785E-2  -6.983045084462354E-1  -2.995333827331808E1  -8.702874893594625E1  
 4.200000000000000E8    -2.977534460228616E1  -8.524055034078216E1  -2.819644893856000E-2  -7.245833850930448E-1  -1.454967321274829E-2  -6.762642818237024E-1  -2.981215598275689E1  -8.572324973313799E1  
 4.300000000000000E8    -2.976323058036802E1  -8.569021956532086E1  -2.661541293541022E-2  -7.462343417896638E-1  -1.847957535072939E-2  -6.966119602491722E-1  -2.962436124344965E1  -8.539153366565678E1  
 4.400000000000000E8    -2.938741309594029E1  -8.552803962292533E1  -2.842425735054038E-2  -7.766192205325503E-1  -1.767107807590382E-2  -7.155198411905350E-1  -2.946167564696697E1  -8.524402058255168E1  
 4.500000000000000E8    -2.914878875746979E1  -8.457001256485604E1  -2.127373029403030E-2  -8.061692377060398E-1  -1.924222280983202E-2  -7.275202822372199E-1  -2.922057850666285E1  -8.402869510914680E1  
 4.600000000000000E8    -2.929857495666239E1  -8.627811691111192E1  -2.439813131667802E-2  -7.790102695168950E-1  -1.453379100063109E-2  -7.277504610958164E-1  -2.920155694781914E1  -8.505260056890897E1  
 4.700000000000000E8    -2.895621265006826E1  -8.594064642355245E1  -2.953986113936500E-2  -8.115726722402110E-1  -1.564139952122927E-2  -7.870856494891002E-1  -2.904134690228113E1  -8.403985705743607E1  
 4.800000000000000E8    -2.884380025531155E1  -8.666227437905673E1  -2.725533119694504E-2  -8.307374073512492E-1  -1.490134300930994E-2  -7.822591590447037E-1  -2.903735527734941E1  -8.483055897304845E1  
 4.900000000000000E8    -2.877656323375298E1  -8.552322834075294E1  -2.303327230404094E-2  -8.576998812033410E-1  -1.809888395593189E-2  -8.274184442384217E-1  -2.886463967882363E1  -8.315658632089881E1  
 5.000000000000000E8    -2.872334812827661E1  -8.599676072571728E1  -2.548154153679668E-2  -8.752207390278582E-1  -1.358589841707790E-2  -8.442935523938063E-1  -2.881563342583993E1  -8.315601685524251E1  
 5.100000000000000E8    -2.843103780043885E1  -8.441580885040912E1  -3.960327083585576E-2  -1.004350439923833  -3.808759497132994E-2  -9.811034506873990E-1  -2.839085105832164E1  -8.205177996853385E1  
 5.200000000000000E8    -2.835041804773642E1  -8.584070829552231E1  -4.870848736939596E-2  -1.040338196875620  -3.697863657186355E-2  -9.539795239294973E-1  -2.835918115846903E1  -8.205708239851653E1  
 5.300000000000000E8    -2.807450577340191E1  -8.589916142888868E1  -4.976157255306139E-2  -1.048373740241017  -3.236501143730852E-2  -9.794890351950349E-1  -2.804445586177083E1  -8.132188773766811E1  
 5.400000000000000E8    -2.782553169328807E1  -8.575868467295325E1  -4.306051693738926E-2  -1.032665717752994  -3.928936313476418E-2  -9.968161499369266E-1  -2.780342708432604E1  -8.211132946093082E1  
 5.500000000000000E8    -2.755035190450087E1  -8.590515776753055E1  -4.885112783332257E-2  -1.085863231335860  -3.754886465859149E-2  -1.020686147707461  -2.731030277403206E1  -8.300275931237512E1  
 5.600000000000000E8    -2.727872804812053E1  -8.666242427569348E1  -4.678085201381917E-2  -1.104596132266462  -3.757430646645021E-2  -1.037550475368625  -2.710907652167757E1  -8.350913777154196E1  
 5.700000000000000E8    -2.678210351897751E1  -8.745315645390456E1  -4.770517375590445E-2  -1.114558475073975  -3.969986485274114E-2  -1.077015773679546  -2.683109930582908E1  -8.390503598671918E1  
 5.800000000000000E8    -2.668744700194728E1  -8.648586168270603E1  -4.628152732913246E-2  -1.135813233609063  -3.887361155009601E-2  -1.075059389473168  -2.661761433159153E1  -8.430614064476758E1  
 5.900000000000000E8    -2.650040252560783E1  -8.666769799278922E1  -4.922415660374011E-2  -1.145607576147528  -3.529705603773942E-2  -1.101938214827997  -2.656520418998299E1  -8.516827907317430E1  
 6.000000000000000E8    -2.642633371095167E1  -8.743101106968203E1  -4.796407062517689E-2  -1.151508919275346  -4.245785274086263E-2  -1.084911215590015  -2.637236060286116E1  -8.513146442854925E1  
 6.100000000000000E8    -2.605277231463983E1  -8.634157066920038E1  -4.793010671020740E-2  -1.159605611907998  -3.819740444132183E-2  -1.109118048240329  -2.610761890971877E1  -8.465930040035576E1  
 6.200000000000000E8    -2.597718044915715E1  -8.667878059095115E1  -4.886003370112107E-2  -1.159197905386497  -4.056745497312157E-2  -1.154233970524107  -2.610562494787683E1  -8.498580813787289E1  
 6.300000000000000E8    -2.582367244855662E1  -8.674156985670821E1  -4.852343796140633E-2  -1.170582280543310  -3.758875924044691E-2  -1.157693953235237  -2.586824453284677E1  -8.582993921191711E1  
 6.400000000000000E8    -2.569772396655931E1  -8.662441689151896E1  -5.069932064530994E-2  -1.190762939037768  -3.890227092962439E-2  -1.179061567232383  -2.572979280777834E1  -8.540228609911851E1  
 6.500000000000000E8    -2.559477365617196E1  -8.581454870077604E1  -4.201359601186249E-2  -1.189570978331156  -3.998382736634400E-2  -1.246332388451744  -2.556049220786693E1  -8.570618997117633E1  
 6.600000000000000E8    -2.556704258742842E1  -8.572723693631413E1  -4.812185341972321E-2  -1.216972359709892  -3.814310566265342E-2  -1.273476527491693  -2.559432430231087E1  -8.525584202720592E1  
 6.700000000000000E8    -2.548766380495742E1  -8.589143093070295E1  -4.471765711085426E-2  -1.232530486279619  -3.786973225066433E-2  -1.280346012675067  -2.545761905774601E1  -8.592502350368636E1  
 6.800000000000000E8    -2.530634221431737E1  -8.620736362797506E1  -5.229899856756045E-2  -1.248863782800836  -3.948360223520294E-2  -1.275841579156897  -2.535393274533228E1  -8.542136544085528E1  
 6.900000000000000E8    -2.525335266799270E1  -8.669792811538289E1  -5.234405058212363E-2  -1.256629819594513  -4.122740676144025E-2  -1.324942097255488  -2.521670004112148E1  -8.562845208599917E1  
 7.000000000000000E8    -2.507528430635269E1  -8.644049255216463E1  -5.036834577922629E-2  -1.283069610668383  -4.095389320067032E-2  -1.353703892921152  -2.503170529037976E1  -8.530378905991242E1  
 7.100000000000000E8    -2.493199889531563E1  -8.798725224190062E1  -5.051507121287316E-2  -1.276905166520806  -3.792831515008154E-2  -1.285216741526419  -2.496675448320364E1  -8.597361364216366E1  
 7.200000000000000E8    -2.484294379140278E1  -8.791634917629597E1  -4.854749131860520E-2  -1.288889639722079  -4.172266421678435E-2  -1.309497192258847  -2.477326301800798E1  -8.576115429936479E1  
 7.300000000000000E8    -2.477457820195945E1  -8.868093244667364E1  -5.014600986699856E-2  -1.322961991472617  -4.075368548139905E-2  -1.301684545257701  -2.467276958173252E1  -8.530145830814588E1  
 7.400000000000000E8    -2.450928801102158E1  -8.895734524467659E1  -5.205257062098487E-2  -1.341863720370031  -3.981848449701634E-2  -1.347383747953279  -2.444383780846276E1  -8.537498286759447E1  
 7.500000000000000E8    -2.442043201871891E1  -8.861547590357584E1  -5.324289261186595E-2  -1.372796323931151  -4.164046638395212E-2  -1.348840123108366  -2.430832233109797E1  -8.567609406667430E1  
 7.600000000000000E8    -2.424541676413317E1  -8.896993998798284E1  -5.318616493642518E-2  -1.389215474961256  -4.236294025125927E-2  -1.344010885391781  -2.412828422822155E1  -8.554417385228074E1  
 7.700000000000000E8    -2.407893542975945E1  -8.858444889088395E1  -5.149075951231319E-2  -1.409892031913247  -3.976084795875045E-2  -1.321649524196632  -2.393794566661347E1  -8.492257590156029E1  
 7.800000000000000E8    -2.398395936087504E1  -8.897490533290031E1  -5.235000295156957E-2  -1.440278698426058  -4.308845375908613E-2  -1.351278013798411  -2.386274837730733E1  -8.523574315241618E1  
 7.900000000000000E8    -2.385203757662848E1  -8.916516801117952E1  -5.268590147567661E-2  -1.451642942621929  -4.306316703917744E-2  -1.374362589908905  -2.373730207114692E1  -8.473830560875489E1  
 8.000000000000000E8    -2.371714931055157E1  -8.944358986917199E1  -5.280354123332167E-2  -1.459866644174562  -4.264880238566142E-2  -1.375955166427399  -2.357145207579071E1  -8.554120038794687E1  
 8.100000000000000E8    -2.361189132634681E1  -8.935017448674235E1  -5.532728100514300E-2  -1.453285131220264  -4.158299563231864E-2  -1.394166580233024  -2.340938447046872E1  -8.509317702901961E1  
 8.200000000000000E8    -2.352709374099360E1  -8.912845026531741E1  -5.071339530350107E-2  -1.489806820444772  -4.234539523257638E-2  -1.426111723915456  -2.334174205329936E1  -8.505917634477351E1  
 8.300000000000000E8    -2.337595294390282E1  -8.965077815974172E1  -5.548891638014081E-2  -1.534226974527513  -4.577077637175055E-2  -1.433757463109112  -2.319691355906944E1  -8.532733264439955E1  
 8.400000000000000E8    -2.333011735291260E1  -8.938903313706210E1  -5.231079107783371E-2  -1.518284787659592  -4.807247809191749E-2  -1.456639324408195  -2.311572674545573E1  -8.619756180265337E1  
 8.500000000000000E8    -2.327777239238059E1  -8.994375693570163E1  -5.526003723232829E-2  -1.541575088736364  -4.727245702911573E-2  -1.476907382513675  -2.305445849106046E1  -8.639385213743974E1  
 8.600000000000000E8    -2.318444298680820E1  -8.969054150692438E1  -5.800609433635613E-2  -1.568849092946327  -4.574172025975447E-2  -1.509892128496883  -2.291186953986049E1  -8.677457181871684E1  
 8.700000000000000E8    -2.309172946983732E1  -8.987724853533346E1  -5.763406384034461E-2  -1.583736838185289  -4.801878524974854E-2  -1.562687900115444  -2.277149622930297E1  -8.590190799335232E1  
 8.800000000000000E8    -2.304611285095272E1  -9.073972691334910E1  -5.752820460773546E-2  -1.575817005240809  -4.573209944830349E-2  -1.575547348268412  -2.281671137368355E1  -8.672095729900750E1  
 8.900000000000000E8    -2.296131118904463E1  -9.077298985768975E1  -5.797571539812737E-2  -1.597421098020015  -4.174927465045890E-2  -1.587785803358882  -2.272342909798591E1  -8.609546872483092E1  
 9.000000000000000E8    -2.291857393898085E1  -9.102279546899510E1  -5.802070814464286E-2  -1.614920239192076  -4.270396010458551E-2  -1.621854949632933  -2.263171951226410E1  -8.620380324055040E1  
 9.100000000000000E8    -2.279348191797427E1  -9.114641899342972E1  -5.573558147584872E-2  -1.640388285114947  -4.530520322242119E-2  -1.636879036566024  -2.248324492930007E1  -8.589329478215150E1  
 9.200000000000000E8    -2.265144796831851E1  -9.120712522653703E1  -5.347797132396755E-2  -1.675875700086460  -4.453756864557742E-2  -1.680741983917929  -2.241982357906201E1  -8.602029294301693E1  
 9.300000000000000E8    -2.258960258223975E1  -9.109609534848150E1  -5.193428059506547E-2  -1.676036078238154  -4.628274273002658E-2  -1.704350972842423  -2.231208617452331E1  -8.581958248120429E1  
 9.400000000000000E8    -2.252285781543750E1  -9.091885768114094E1  -5.360733071770573E-2  -1.702478207976850  -4.767810984134265E-2  -1.735885994596952  -2.217298436662516E1  -8.581985106097075E1  
 9.500000000000000E8    -2.241203910363811E1  -9.126063259109375E1  -5.449568061443966E-2  -1.714532894024559  -4.608715062056700E-2  -1.775790090384401  -2.205839446038933E1  -8.574134330885974E1  
 9.600000000000000E8    -2.232929010400063E1  -9.145660750095519E1  -5.580230133011701E-2  -1.747763072420675  -4.429774235032027E-2  -1.775964734541379  -2.200862037510364E1  -8.576548741756571E1  
 9.700000000000000E8    -2.224524776173084E1  -9.143981320946929E1  -5.913803838060398E-2  -1.761999034281124  -4.477142498937655E-2  -1.794191074480344  -2.191679678062867E1  -8.525443666246876E1  
 9.800000000000000E8    -2.216023327731513E1  -9.128069090250756E1  -5.833988226416232E-2  -1.811255582277604  -4.553870645102336E-2  -1.796652662384465  -2.186477727687799E1  -8.541248644162189E1  
