<Qucs Dataset 0.0.19>
<indep acfrequency 141>
  +1.00000000000000000000e+009
  +1.10000000000000000000e+009
  +1.20000000000000000000e+009
  +1.30000000000000000000e+009
  +1.40000000000000000000e+009
  +1.50000000000000000000e+009
  +1.60000000000000000000e+009
  +1.70000000000000000000e+009
  +1.80000000000000000000e+009
  +1.90000000000000000000e+009
  +2.00000000000000000000e+009
  +2.10000000000000000000e+009
  +2.20000000000000000000e+009
  +2.30000000000000000000e+009
  +2.40000000000000000000e+009
  +2.50000000000000000000e+009
  +2.60000000000000000000e+009
  +2.70000000000000000000e+009
  +2.80000000000000000000e+009
  +2.90000000000000000000e+009
  +3.00000000000000000000e+009
  +3.10000000000000000000e+009
  +3.20000000000000000000e+009
  +3.30000000000000000000e+009
  +3.40000000000000000000e+009
  +3.50000000000000000000e+009
  +3.60000000000000000000e+009
  +3.70000000000000000000e+009
  +3.80000000000000000000e+009
  +3.90000000000000000000e+009
  +4.00000000000000000000e+009
  +4.10000000000000000000e+009
  +4.20000000000000000000e+009
  +4.30000000000000000000e+009
  +4.40000000000000000000e+009
  +4.50000000000000000000e+009
  +4.60000000000000000000e+009
  +4.70000000000000000000e+009
  +4.80000000000000000000e+009
  +4.90000000000000000000e+009
  +5.00000000000000000000e+009
  +5.10000000000000000000e+009
  +5.20000000000000000000e+009
  +5.30000000000000000000e+009
  +5.40000000000000000000e+009
  +5.50000000000000000000e+009
  +5.60000000000000000000e+009
  +5.70000000000000000000e+009
  +5.80000000000000000000e+009
  +5.90000000000000000000e+009
  +6.00000000000000000000e+009
  +6.10000000000000000000e+009
  +6.20000000000000000000e+009
  +6.30000000000000000000e+009
  +6.40000000000000000000e+009
  +6.50000000000000000000e+009
  +6.60000000000000000000e+009
  +6.70000000000000000000e+009
  +6.80000000000000000000e+009
  +6.90000000000000000000e+009
  +7.00000000000000000000e+009
  +7.10000000000000000000e+009
  +7.20000000000000000000e+009
  +7.30000000000000000000e+009
  +7.40000000000000000000e+009
  +7.50000000000000000000e+009
  +7.60000000000000000000e+009
  +7.70000000000000000000e+009
  +7.80000000000000000000e+009
  +7.90000000000000000000e+009
  +8.00000000000000000000e+009
  +8.10000000000000000000e+009
  +8.20000000000000000000e+009
  +8.30000000000000000000e+009
  +8.40000000000000000000e+009
  +8.50000000000000000000e+009
  +8.60000000000000000000e+009
  +8.70000000000000000000e+009
  +8.80000000000000000000e+009
  +8.90000000000000000000e+009
  +9.00000000000000000000e+009
  +9.10000000000000000000e+009
  +9.20000000000000000000e+009
  +9.30000000000000000000e+009
  +9.40000000000000000000e+009
  +9.50000000000000000000e+009
  +9.60000000000000000000e+009
  +9.70000000000000000000e+009
  +9.80000000000000000000e+009
  +9.90000000000000000000e+009
  +1.00000000000000000000e+010
  +1.01000000000000000000e+010
  +1.02000000000000000000e+010
  +1.03000000000000000000e+010
  +1.04000000000000000000e+010
  +1.05000000000000000000e+010
  +1.06000000000000000000e+010
  +1.07000000000000000000e+010
  +1.08000000000000000000e+010
  +1.09000000000000000000e+010
  +1.10000000000000000000e+010
  +1.11000000000000000000e+010
  +1.12000000000000000000e+010
  +1.13000000000000000000e+010
  +1.14000000000000000000e+010
  +1.15000000000000000000e+010
  +1.16000000000000000000e+010
  +1.17000000000000000000e+010
  +1.18000000000000000000e+010
  +1.19000000000000000000e+010
  +1.20000000000000000000e+010
  +1.21000000000000000000e+010
  +1.22000000000000000000e+010
  +1.23000000000000000000e+010
  +1.24000000000000000000e+010
  +1.25000000000000000000e+010
  +1.26000000000000000000e+010
  +1.27000000000000000000e+010
  +1.28000000000000000000e+010
  +1.29000000000000000000e+010
  +1.30000000000000000000e+010
  +1.31000000000000000000e+010
  +1.32000000000000000000e+010
  +1.33000000000000000000e+010
  +1.34000000000000000000e+010
  +1.35000000000000000000e+010
  +1.36000000000000000000e+010
  +1.37000000000000000000e+010
  +1.38000000000000000000e+010
  +1.39000000000000000000e+010
  +1.40000000000000000000e+010
  +1.41000000000000000000e+010
  +1.42000000000000000000e+010
  +1.43000000000000000000e+010
  +1.44000000000000000000e+010
  +1.45000000000000000000e+010
  +1.46000000000000000000e+010
  +1.47000000000000000000e+010
  +1.48000000000000000000e+010
  +1.49000000000000000000e+010
  +1.50000000000000000000e+010
</indep>
<dep rfr acfrequency>
  +1.49496495511454297045e+000
  +1.49465046821526570398e+000
  +1.49447056978109849013e+000
  +1.49442529091703280031e+000
  +1.49451478897146761149e+000
  +1.49473933689990046147e+000
  +1.49509931852607502734e+000
  +1.49559522796082933205e+000
  +1.49622767207218876351e+000
  +1.49699737527254628233e+000
  +1.49790518611809742033e+000
  +1.49895208536539459310e+000
  +1.50013919522877658963e+000
  +1.50146778965339722234e+000
  +1.50293930546889642486e+000
  +1.50455535432708331633e+000
  +1.50631773535742441439e+000
  +1.50822844849805237644e+000
  +1.51028970848107957359e+000
  +1.51250395946858606777e+000
  +1.51487389035229647050e+000
  +1.51740245074451829410e+000
  +1.52009286770243434717e+000
  +1.52294866324152211590e+000
  +1.52597367270748152102e+000
  +1.52917206408984185373e+000
  +1.53254835837427028089e+000
  +1.53610745104530366234e+000
  +1.53985463486639684305e+000
  +1.54379562408048842670e+000
  +1.54793658019181012975e+000
  +1.55228413950861288129e+000
  +1.55684544264738722319e+000
  +1.56162816622205991024e+000
  +1.56664055696717463562e+000
  +1.57189146857236972110e+000
  +1.57739040153735210481e+000
  +1.58314754639223043142e+000
  +1.58917383066838402428e+000
  +1.59548097005056654929e+000
  +1.60208152419260341226e+000
  +1.60898895773780470364e+000
  +1.61621770715206980462e+000
  +1.62378325405428869388e+000
  +1.63170220581606972843e+000
  +1.63999238430353999618e+000
  +1.64867292374971174951e+000
  +1.65776437887943872695e+000
  +1.66728884456356851729e+000
  +1.67727008845803782222e+000
  +1.68773369829211139503e+000
  +1.69870724571275788506e+000
  +1.71022046887622680700e+000
  +1.72230547631087937965e+000
  +1.73499697496657656615e+000
  +1.74833252582787834761e+000
  +1.76235283101407169681e+000
  +1.77710205693738876320e+000
  +1.79262819886233115696e+000
  +1.80898349313089590318e+000
  +1.82622488442425812138e+000
  +1.84441455676173893252e+000
  +1.86362053854585285606e+000
  +1.88391739391225998546e+000
  +1.90538701501971385888e+000
  +1.92811953282264947340e+000
  +1.95221436744338361358e+000
  +1.97778144367683150762e+000
  +2.00494260264320134368e+000
  +2.03383324744793814176e+000
  +2.06460426929948726027e+000
  +2.09742431138330864826e+000
  +2.13248244157416078082e+000
  +2.16999132269690875319e+000
  +2.21019099174814659392e+000
  +2.25335338894294601175e+000
  +2.29978781595600390020e+000
  +2.34984755348664009489e+000
  +2.40393793577900272140e+000
  +2.46252627034041138288e+000
  +2.52615411395038957920e+000
  +2.59545258440146975332e+000
  +2.67116162076808683068e+000
  +2.75415443247707791841e+000
  +2.84546884316394921299e+000
  +2.94634790719160477579e+000
  +3.05829316131176165428e+000
  +3.18313534155061228503e+000
  +3.32312962398027966771e+000
  +3.48108590195914757714e+000
  +3.66055008729657549438e+000
  +3.86606132041743100203e+000
  +4.10352484270927497789e+000
  +4.38076591663419723233e+000
  +4.70837595411137765922e+000
  +5.10104710461012356149e+000
  +5.57975718067682890933e+000
  +6.17550684175842601320e+000
  +6.93605404234657196838e+000
  +7.93883887358310591509e+000
  +9.31778189420485070116e+000
  +1.13244377712712882555e+001
  +1.44850178809032978933e+001
  +2.00586565343197982259e+001
  +3.13195112848166274944e+001
  +4.82778026361149628087e+001
  +3.69167387157493962491e+001
  +2.32809124429881002527e+001
  +1.66021750681192017396e+001
  +1.29527159356206365004e+001
  +1.06979053364490894751e+001
  +9.17799910686566633444e+000
  +8.08817653411606407587e+000
  +7.27043293560555170529e+000
  +6.63526859870113838724e+000
  +6.12837727422664890753e+000
  +5.71496374295602560522e+000
  +5.37173148149563317588e+000
  +5.08250759358723325221e+000
  +4.83571919187814280860e+000
  +4.62286940258826106742e+000
  +4.43758054203055607445e+000
  +4.27497300921509548743e+000
  +4.13125027675521749870e+000
  +4.00341449024792161993e+000
  +3.88906717814108215947e+000
  +3.78626680978162344360e+000
  +3.69342516885867055976e+000
  +3.60923075747160693183e+000
  +3.53259136157286235402e+000
  +3.46259041977574133497e+000
  +3.39845348223628862527e+000
  +3.33952214425589843927e+000
  +3.28523358507694851482e+000
  +3.23510435715994937311e+000
  +3.18871743187862666247e+000
  +3.14571176369744254231e+000
  +3.10577381913055416973e+000
  +3.06863065088874531483e+000
  +3.03404419634078781343e+000
  +3.00180655285500996854e+000
</dep>
<dep vswr acfrequency>
  +2.96012122377290420872e+000
  +2.95765677854025943461e+000
  +2.95624840107522857124e+000
  +2.95589408265236386342e+000
  +2.95659448855192863448e+000
  +2.95835287815345138185e+000
  +2.96117508528910100551e+000
  +2.96506954506902564717e+000
  +2.97004735894622839965e+000
  +2.97612239316579563209e+000
  +2.98331140793344040674e+000
  +2.99163421617775115990e+000
  +3.00111387192152712089e+000
  +3.01177688921946939971e+000
  +3.02365349343640232860e+000
  +3.03677790741604347602e+000
  +3.05118867587433806321e+000
  +3.06692903217293721951e+000
  +3.08404731253790354017e+000
  +3.10259742380640179960e+000
  +3.12263937196122309814e+000
  +3.14423986007691480538e+000
  +3.16747296591521187992e+000
  +3.19242091132125205277e+000
  +3.21917493786334230066e+000
  +3.24783630591884220351e+000
  +3.27851743774882642413e+000
  +3.31134322917378920437e+000
  +3.34645255944129837999e+000
  +3.38400003500374380039e+000
  +3.42415801050347923251e+000
  +3.46711893968847917336e+000
  +3.51309812077284888687e+000
  +3.56233691559004528315e+000
  +3.61510654066561532005e+000
  +3.67171255225986969961e+000
  +3.73250017812070344903e+000
  +3.79786068833330547889e+000
  +3.86823904926469008814e+000
  +3.94414317232494182619e+000
  +4.02615515889755837264e+000
  +4.11494506249489955252e+000
  +4.21128785061607668894e+000
  +4.31608446873495488205e+000
  +4.43038821188591569467e+000
  +4.55543803186179641074e+000
  +4.69270100484707342048e+000
  +4.84392703907186028545e+000
  +5.01122014492274825415e+000
  +5.19713242706341116417e+000
  +5.40478972294266934995e+000
  +5.63806205606016330734e+000
  +5.90179873037941860048e+000
  +6.20215859294006932600e+000
  +6.54708365969690309072e+000
  +6.94699436857760233011e+000
  +7.41583768295772927104e+000
  +7.97271626880023109862e+000
  +8.64451284614271386886e+000
  +9.47029930963253896437e+000
  +1.05091277216171743447e+001
  +1.18546730232161330321e+001
  +1.36649647877692448361e+001
  +1.62291100915525241533e+001
  +2.01387475029640725666e+001
  +2.68239705240841743716e+001
  +4.08535842887587890004e+001
  +8.90148493407965588631e+001
  -4.05645111973750090328e+002
  -6.01134505511943117995e+001
  -3.19577063820435611774e+001
  -2.15287568534218429761e+001
  -1.60963401356129551800e+001
  -1.27653064184103168799e+001
  -1.05151556370999301748e+001
  -8.89411188989617329526e+000
  -7.67138520497282172528e+000
  -6.71677572150401491768e+000
  -5.95125568273987148871e+000
  -5.32407871347076966373e+000
  -4.80116765596282757400e+000
  -4.35878968769669050687e+000
  -3.97990817429514498471e+000
  -3.65197672236818515756e+000
  -3.36555139337307274161e+000
  -3.11338767149095030362e+000
  -2.88983551355560663865e+000
  -2.69042368168869705514e+000
  -2.51156769809411217764e+000
  -2.35036056811724769489e+000
  -2.20442015889810249973e+000
  -2.07177614053572867192e+000
  -1.95078506295369513701e+000
  -1.84006578976378132317e+000
  -1.73844991754706468257e+000
  -1.64494344411174231446e+000
  -1.55869711241751240927e+000
  -1.47898376791013519416e+000
  -1.40518194955766961840e+000
  -1.33676616634546463480e+000
  -1.27330686113832580730e+000
  -1.21449014397007659660e+000
  -1.16019200125128696399e+000
  -1.11075020980653116354e+000
  -1.06821396102314003507e+000
  -1.04321726370039913334e+000
  -1.05727911808378283176e+000
  -1.09398093269534535388e+000
  -1.13696589656472335506e+000
  -1.18260311065820333809e+000
  -1.22994041928909947359e+000
  -1.27862917927741515101e+000
  -1.32850558599815249394e+000
  -1.37947546708896839895e+000
  -1.43147445663891526024e+000
  -1.48445184806290519930e+000
  -1.53836326230430042727e+000
  -1.59316704517432095045e+000
  -1.64882240814613001412e+000
  -1.70528845230100767338e+000
  -1.76252366893539913484e+000
  -1.82048570929843323007e+000
  -1.87913130920618409725e+000
  -1.93841630042857104854e+000
  -1.99829566459435037373e+000
  -2.05872359815603767075e+000
  -2.11965356409690297568e+000
  -2.18103831027145611543e+000
  -2.24282983699762406005e+000
  -2.30497929855708338920e+000
  -2.36743682507277686256e+000
  -2.43015125308406298998e+000
  -2.49306975519318196888e+000
  -2.55613736150558024107e+000
  -2.61929636828331124931e+000
  -2.68248563229971148658e+000
  -2.74563975283416583650e+000
  -2.80868814706840908002e+000
  -2.87155402882807564424e+000
  -2.93415330512707051014e+000
  -2.99639340978582868757e+000
</dep>
<dep V1.i acfrequency>
  -9.94617456873982293264e-003+j9.00767040008922326372e-005
  -9.93689656354433681340e-003+j9.39057861025876768404e-005
  -9.92737275328831221544e-003+j9.65944867481397228268e-005
  -9.91772755810454466341e-003+j9.81372122986973383823e-005
  -9.90808380234093483141e-003+j9.85417650796790848579e-005
  -9.89856134062786982564e-003+j9.78288999134223173637e-005
  -9.88927576180227869973e-003+j9.60317521759452159260e-005
  -9.88033718016421112773e-003+j9.31951486527887322563e-005
  -9.87184912232710702618e-003+j8.93748127676879792515e-005
  -9.86390751673247440090e-003+j8.46364759439770811484e-005
  -9.85659979175992559397e-003+j7.90549069555975843357e-005
  -9.85000408728644444301e-003+j7.27128711531074600804e-005
  -9.84418858353106746018e-003+j6.57000314295668597217e-005
  -9.83921095005811131851e-003+j5.81118027357900506316e-005
  -9.83511791689220711554e-003+j5.00481718743335648797e-005
  -9.83194496881079939288e-003+j4.16124942019390433212e-005
  -9.82971616301170705854e-003+j3.29102787530719843867e-005
  -9.82844406949559025455e-003+j2.40479731590783748162e-005
  -9.82812983264619299817e-003+j1.51317595735280694617e-005
  -9.82876335162976601245e-003+j6.26637261618922761258e-006
  -9.83032357636655015898e-003-j2.44604989350876864403e-006
  -9.83277891495138757494e-003-j1.09070729377661604842e-005
  -9.83608774752145822995e-003-j1.90230169190220312059e-005
  -9.84019904069283884995e-003-j2.67059472090389017022e-005
  -9.84505305582238088302e-003-j3.38745914521525548295e-005
  -9.85058214350869286446e-003-j4.04551760420414363312e-005
  -9.85671161593720812633e-003-j4.63821738760779211561e-005
  -9.86336068791310652260e-003-j5.15989562657542000256e-005
  -9.87044347672556311724e-003-j5.60583427439936658743e-005
  -9.87787005036110977996e-003-j5.97230434571263088831e-005
  -9.88554751304568726789e-003-j6.25659898529918039479e-005
  -9.89338111665681065043e-003-j6.45705504695404201030e-005
  -9.90127538621924339901e-003-j6.57306297786418297765e-005
  -9.90913524748953354615e-003-j6.60506492351182550662e-005
  -9.91686714455376240596e-003-j6.55454109071218016334e-005
  -9.92438013541402028195e-003-j6.42398453057636245524e-005
  -9.93158695372540339941e-003-j6.21686462725181451360e-005
  -9.93840502516796751864e-003-j5.93757970069078315815e-005
  -9.94475742739443259455e-003-j5.59139925065814830671e-005
  -9.95057378308172868486e-003-j5.18439648317064639299e-005
  -9.95579107632565268871e-003-j4.72337186791301570621e-005
  -9.96035438344528879784e-003-j4.21576857450236888183e-005
  -9.96421751019688738127e-003-j3.66958072532680700277e-005
  -9.96734352842443965814e-003-j3.09325548194527109457e-005
  -9.96970520628209094793e-003-j2.49559004960355138697e-005
  -9.97128532733802981636e-003-j1.88562473947570989694e-005
  -9.97207689509485920021e-003-j1.27253327011874948599e-005
  -9.97208322072224567778e-003-j6.65511517893426106569e-006
  -9.97131789307694436919e-003-j7.36659405156535069228e-007
  -9.96980463136737556085e-003+j4.94097101553591879939e-006
  -9.96757702208939978805e-003+j1.02917991432113697047e-005
  -9.96467814310008671852e-003+j1.52339874497702645114e-005
  -9.96116007889469821934e-003+j1.96908461623730078561e-005
  -9.95708333229319841884e-003+j2.35917862568974239131e-005
  -9.95251613881662465511e-003+j2.68732067797209552419e-005
  -9.94753369102768097987e-003+j2.94793069022618236196e-005
  -9.94221728101643033304e-003+j3.13628139305016943785e-005
  -9.93665337002255961985e-003+j3.24856193887582172164e-005
  -9.93093259489465952916e-003+j3.28193162621640796865e-005
  -9.92514872168966458266e-003+j3.23456315026087397975e-005
  -9.91939755721004366718e-003+j3.10567489669450450982e-005
  -9.91377582965992203146e-003+j2.89555190513293524276e-005
  -9.90838004987561540848e-003+j2.60555524007329784289e-005
  -9.90330536475115576212e-003+j2.23811961961544440445e-005
  -9.89864441453854222719e-003+j1.79673926445763433623e-005
  -9.89448620565862475840e-003+j1.28594204077832997358e-005
  -9.89091501051597016270e-003+j7.11252079785626564398e-006
  -9.88800930557426002721e-003+j7.91411631392355935898e-007
  -9.88584075862333766516e-003-j6.03030733499190969588e-006
  -9.88447327575945819400e-003-j1.32708524750428403247e-005
  -9.88396211811279346016e-003-j2.08410520105023494173e-005
  -9.88435309779549763076e-003-j2.86452326206798472182e-005
  -9.88568186191528773532e-003-j3.65821893446148125803e-005
  -9.88797327280775684155e-003-j4.45462303874011021653e-005
  -9.89124089189097853436e-003-j5.24282877114572723942e-005
  -9.89548657374115896157e-003-j6.01170836224737125276e-005
  -9.90070017613320710326e-003-j6.75003429506844398762e-005
  -9.90685939088748607206e-003-j7.44660398830273700119e-005
  -9.91392969941686311164e-003-j8.09036680224481570285e-005
  -9.92186445587945817226e-003-j8.67055218397183732025e-005
  -9.93060509981438278848e-003-j9.17679773427845064341e-005
  -9.94008149907240658172e-003-j9.59927595222341263712e-005
  -9.95021242275440608027e-003-j9.92881839424608202312e-005
  -9.96090614273903267317e-003-j1.01570359740170071535e-004
  -9.97206116122139468727e-003-j1.02764341269941255372e-004
  -9.98356706049999612085e-003-j1.02805215705896276141e-004
  -9.99530547004431717262e-003-j1.01639114073623289562e-004
  -1.00071511446553941538e-002-j9.92241334547069994340e-005
  -1.00189731463033726566e-002-j9.55311584824777962387e-005
  -1.00306361209970013731e-002-j9.05445707382452312246e-005
  -1.00420016608190817986e-002-j8.42628352688436612142e-005
  -1.00529297400603762069e-002-j7.66989541836053819422e-005
  -1.00632802132136333489e-002-j6.78807781570723011441e-005
  -1.00729143614635106851e-002-j5.78511676669993425834e-005
  -1.00816964732422832685e-002-j4.66679969374652036654e-005
  -1.00894954434319131242e-002-j3.44039948355744158357e-005
  -1.00961863748975731042e-002-j2.11464183864921084419e-005
  -1.01016521652564205541e-002-j6.99655612135407123549e-006
  -1.01057850611360466875e-002+j7.93093984892770127032e-006
  -1.01084881616812088945e-002+j2.35088923430101993288e-005
  -1.01096768527448570979e-002+j3.95986056057331871783e-005
  -1.01092801530684971156e-002+j5.60510351960984254502e-005
  -1.01072419538394981525e-002+j7.27081146005955291593e-005
  -1.01035221333209638411e-002+j8.94042297759653850370e-005
  -1.00980975288049584782e-002+j1.05967830676619161902e-004
  -1.00909627489490800328e-002+j1.22223166664550079302e-004
  -1.00821308106302832963e-002+j1.37992130577940471693e-004
  -1.00716335857978494389e-002+j1.53096194179155176271e-004
  -1.00595220454232445878e-002+j1.67358415740396663856e-004
  -1.00458662895316457042e-002+j1.80605498706800136162e-004
  -1.00307553544452063982e-002+j1.92669878727654573028e-004
  -1.00142967907583761017e-002+j2.03391814910269640030e-004
