<Qucs Dataset 0.0.19>
<indep acfrequency 101>
  +5.00000000000000000000e+009
  +5.01000000000000000000e+009
  +5.02000000000000000000e+009
  +5.03000000000000000000e+009
  +5.04000000000000000000e+009
  +5.05000000000000000000e+009
  +5.06000000000000000000e+009
  +5.07000000000000000000e+009
  +5.08000000000000000000e+009
  +5.09000000000000000000e+009
  +5.10000000000000000000e+009
  +5.11000000000000000000e+009
  +5.12000000000000000000e+009
  +5.13000000000000000000e+009
  +5.14000000000000000000e+009
  +5.15000000000000000000e+009
  +5.16000000000000000000e+009
  +5.17000000000000000000e+009
  +5.18000000000000000000e+009
  +5.19000000000000000000e+009
  +5.20000000000000000000e+009
  +5.21000000000000000000e+009
  +5.22000000000000000000e+009
  +5.23000000000000000000e+009
  +5.24000000000000000000e+009
  +5.25000000000000000000e+009
  +5.26000000000000000000e+009
  +5.27000000000000000000e+009
  +5.28000000000000000000e+009
  +5.29000000000000000000e+009
  +5.30000000000000000000e+009
  +5.31000000000000000000e+009
  +5.32000000000000000000e+009
  +5.33000000000000000000e+009
  +5.34000000000000000000e+009
  +5.35000000000000000000e+009
  +5.36000000000000000000e+009
  +5.37000000000000000000e+009
  +5.38000000000000000000e+009
  +5.39000000000000000000e+009
  +5.40000000000000000000e+009
  +5.41000000000000000000e+009
  +5.42000000000000000000e+009
  +5.43000000000000000000e+009
  +5.44000000000000000000e+009
  +5.45000000000000000000e+009
  +5.46000000000000000000e+009
  +5.47000000000000000000e+009
  +5.48000000000000000000e+009
  +5.49000000000000000000e+009
  +5.50000000000000000000e+009
  +5.51000000000000000000e+009
  +5.52000000000000000000e+009
  +5.53000000000000000000e+009
  +5.54000000000000000000e+009
  +5.55000000000000000000e+009
  +5.56000000000000000000e+009
  +5.57000000000000000000e+009
  +5.58000000000000000000e+009
  +5.59000000000000000000e+009
  +5.60000000000000000000e+009
  +5.61000000000000000000e+009
  +5.62000000000000000000e+009
  +5.63000000000000000000e+009
  +5.64000000000000000000e+009
  +5.65000000000000000000e+009
  +5.66000000000000000000e+009
  +5.67000000000000000000e+009
  +5.68000000000000000000e+009
  +5.69000000000000000000e+009
  +5.70000000000000000000e+009
  +5.71000000000000000000e+009
  +5.72000000000000000000e+009
  +5.73000000000000000000e+009
  +5.74000000000000000000e+009
  +5.75000000000000000000e+009
  +5.76000000000000000000e+009
  +5.77000000000000000000e+009
  +5.78000000000000000000e+009
  +5.79000000000000000000e+009
  +5.80000000000000000000e+009
  +5.81000000000000000000e+009
  +5.82000000000000000000e+009
  +5.83000000000000000000e+009
  +5.84000000000000000000e+009
  +5.85000000000000000000e+009
  +5.86000000000000000000e+009
  +5.87000000000000000000e+009
  +5.88000000000000000000e+009
  +5.89000000000000000000e+009
  +5.90000000000000000000e+009
  +5.91000000000000000000e+009
  +5.92000000000000000000e+009
  +5.93000000000000000000e+009
  +5.94000000000000000000e+009
  +5.95000000000000000000e+009
  +5.96000000000000000000e+009
  +5.97000000000000000000e+009
  +5.98000000000000000000e+009
  +5.99000000000000000000e+009
  +6.00000000000000000000e+009
</indep>
<indep frequency 11>
  +5.00000000000000000000e+009
  +5.10000000000000000000e+009
  +5.20000000000000000000e+009
  +5.30000000000000000000e+009
  +5.40000000000000000000e+009
  +5.50000000000000000000e+009
  +5.60000000000000000000e+009
  +5.70000000000000000000e+009
  +5.80000000000000000000e+009
  +5.90000000000000000000e+009
  +6.00000000000000000000e+009
</indep>
<dep SWR frequency>
  +2.65261020246788703503e+001
  +2.78509890782160667300e+001
  +2.90723279981150817264e+001
  +3.01072681031217754821e+001
  +2.95246951229749008405e+001
  +3.19139628135399924247e+001
  +3.48058504886593809147e+001
  +3.97570161742610324040e+001
  +4.46351179782312925681e+001
  +4.54871129715867894561e+001
  +4.61262881777605855405e+001
</dep>
<dep ZofS11 frequency>
  +2.06775159861546420359e+000-j1.55592890493068072288e+001
  +1.89574978247842240719e+000-j1.18209490626588049622e+001
  +1.77606754055376381274e+000-j9.03443719854920068713e+000
  +1.68986336231547484843e+000-j6.61885424439921798978e+000
  +1.70436484934190901619e+000-j4.00301211337404350132e+000
  +1.57002439623546119485e+000-j2.29778369585515740425e+000
  +1.43654828757441999088e+000-j1.19306719483166179252e-001
  +1.25888338450689496462e+000+j1.57187412145734262126e+000
  +1.12353112787954967366e+000+j2.72827291645569847134e+000
  +1.10751615301272754444e+000+j4.34470044886829231956e+000
  +1.09741540237264056934e+000+j5.56508862751643995637e+000
</dep>
<dep dBS11 frequency>
  -6.55204290333950445380e-001
  -6.24008368722767770009e-001
  -5.97772400414113169731e-001
  -5.77208522393494516400e-001
  -5.88606473174072664101e-001
  -5.44509879156474974060e-001
  -4.99242549687245462664e-001
  -4.37040951092508234144e-001
  -3.89260462039464627537e-001
  -3.81967058100191547698e-001
  -3.76672443007139534643e-001
</dep>
<dep Pr1.v acfrequency>
  +5.94794287794291054450e-003-j2.01990145802065680647e-002
  +5.79419354324958637420e-003-j2.02146777545255014463e-002
  +5.63931870574633457155e-003-j2.02400951523462532822e-002
  +5.44189467773404517148e-003-j2.02601576655174059338e-002
  +5.24178362979423485141e-003-j2.02874734212772078745e-002
  +5.07688111029372998034e-003-j2.02979400336657615778e-002
  +4.91746083499646543385e-003-j2.03049954934590992650e-002
  +4.80463240132281404343e-003-j2.03009989134991623849e-002
  +4.68516148920135148959e-003-j2.02841489047680088864e-002
  +4.56718509531620856651e-003-j2.02737737121188657530e-002
  +4.46280821237331551399e-003-j2.02560637702876161770e-002
  +4.35193533138914304126e-003-j2.02159123533580883936e-002
  +4.24266828072147449830e-003-j2.01567504035396125039e-002
  +4.14295600870382557668e-003-j2.01012426931770418759e-002
  +4.04320336810735491556e-003-j2.00580914108493095493e-002
  +3.92372652253898494823e-003-j2.00328293506921439882e-002
  +3.80973564094831511351e-003-j2.00283190477779787786e-002
  +3.67557419048720633234e-003-j2.00331733875089290642e-002
  +3.55755073384567089764e-003-j2.00177485778406660799e-002
  +3.41750075632847247209e-003-j1.99975849636153737987e-002
  +3.29143020005542592116e-003-j1.99683346299760790254e-002
  +3.16244723957033978257e-003-j1.99372759070726157660e-002
  +3.03063151848526361395e-003-j1.99145227595182751357e-002
  +2.91470495141906999620e-003-j1.99016541592998627563e-002
  +2.78218638557194229005e-003-j1.98912948054617219618e-002
  +2.66473130014611373634e-003-j1.98909767776481241630e-002
  +2.57073461652889551088e-003-j1.98571989437613116714e-002
  +2.48978474324694325215e-003-j1.98095464807697338450e-002
  +2.42996638821422160370e-003-j1.97510085577413639635e-002
  +2.37012110888486920990e-003-j1.96825483058045008766e-002
  +2.32650749716240435455e-003-j1.96177412895070929499e-002
  +2.24528401287360599575e-003-j1.95752097448615956787e-002
  +2.14610052774689800958e-003-j1.95360414643360215392e-002
  +2.04294775953843370242e-003-j1.95331439605538441373e-002
  +1.94305525055184311750e-003-j1.95142439010070403715e-002
  +1.84065036363384925897e-003-j1.95053822865327158853e-002
  +1.73428372261921000426e-003-j1.94755217387833287623e-002
  +1.64524091738420122702e-003-j1.94515584107935457503e-002
  +1.54197989714855354312e-003-j1.94219964059204538986e-002
  +1.41009849869840552493e-003-j1.94246269910589887397e-002
  +1.28641702905973095289e-003-j1.94084479184744758407e-002
  +1.15910934682056160003e-003-j1.94000504862550347818e-002
  +1.06139784026004074802e-003-j1.93786224395134237808e-002
  +9.96302708904786126637e-004-j1.93379754680066962003e-002
  +9.54960397013233409924e-004-j1.92712785732858174481e-002
  +9.35856931338253797761e-004-j1.91841197498110425934e-002
  +9.42980874734353040345e-004-j1.90929509149243108179e-002
  +9.10917656941229517131e-004-j1.90045379016395739324e-002
  +8.46084240817553167105e-004-j1.89547498672819475507e-002
  +7.39521181086714779127e-004-j1.89166211476084721033e-002
  +5.98929591826117624712e-004-j1.89030873427163299827e-002
  +4.59308428265963993378e-004-j1.88951027162380519320e-002
  +3.55728300528560838212e-004-j1.89167692674410969911e-002
  +2.74811618670513929663e-004-j1.89200106037468174236e-002
  +2.01607171099824327570e-004-j1.89040043067730291482e-002
  +1.35960323932950415821e-004-j1.88788534857221787511e-002
  +5.21535673730620392280e-005-j1.88479143432221420140e-002
  -3.65579847683326301239e-005-j1.88079005274603035247e-002
  -1.18600626787658189332e-004-j1.87478316204234135567e-002
  -1.79695753699299484371e-004-j1.86884242637912964535e-002
  -2.20217270423509305435e-004-j1.86264237267921226038e-002
  -2.43879296039322844211e-004-j1.85518393176806531408e-002
  -2.57045541248461214059e-004-j1.84775571955535442004e-002
  -2.67424207760212835107e-004-j1.84115305055208046403e-002
  -3.12786954405472198207e-004-j1.83719329763882902040e-002
  -4.02228705192843490057e-004-j1.83397023834352239369e-002
  -5.14437123799764677717e-004-j1.83271765580993138689e-002
  -6.28842965140269578340e-004-j1.82942657156951841990e-002
  -7.33903904498115562845e-004-j1.82811223686283989831e-002
  -8.04972990763138784159e-004-j1.82720478143383671665e-002
  -8.61023984783890433507e-004-j1.82642069290099434697e-002
  -9.13478134317887227600e-004-j1.82442623266090390988e-002
  -9.56110794178723359844e-004-j1.82265644425569188491e-002
  -1.00977747299395076083e-003-j1.81903975146447613453e-002
  -1.04071165686609509032e-003-j1.81431899947063109135e-002
  -1.07544961871404833390e-003-j1.80759907429566719916e-002
  -1.09638159317548920108e-003-j1.79992866058589287559e-002
  -1.12393888572010413815e-003-j1.79225760646509121865e-002
  -1.15148174443741512993e-003-j1.78698074888893401746e-002
  -1.19953944750132929578e-003-j1.78269439541315286024e-002
  -1.26365339314453558814e-003-j1.78163014487337650893e-002
  -1.34506664838018701047e-003-j1.78178566582871851509e-002
  -1.42340054384706895391e-003-j1.77990198082648744260e-002
  -1.49773811272456923958e-003-j1.77798717955659768553e-002
  -1.58216330559562490601e-003-j1.77514054602155857410e-002
  -1.64419371487627141715e-003-j1.77155450392577767937e-002
  -1.69716652180531548874e-003-j1.76881773713274681459e-002
  -1.75770946131183626419e-003-j1.76601225913340549589e-002
  -1.79827418914566255354e-003-j1.76354185652801177808e-002
  -1.83064970502008414477e-003-j1.76096791128104376845e-002
  -1.85003646391300219549e-003-j1.75607576459044199824e-002
  -1.82382050519660555456e-003-j1.75000022540172245344e-002
  -1.81201487628386255849e-003-j1.74254542557159136651e-002
  -1.79625313561046539082e-003-j1.73535063815618770255e-002
  -1.80878119938637262065e-003-j1.73022859895619121606e-002
  -1.87069325439659958459e-003-j1.72822655336236676027e-002
  -1.96297893240082992755e-003-j1.72904224660516622758e-002
  -2.05880585291862887656e-003-j1.73104802679053190739e-002
  -2.15614779977198797040e-003-j1.73345151911951170232e-002
  -2.22516171575217261425e-003-j1.73345938465054687228e-002
  -2.26790650406945466788e-003-j1.73174333541828012750e-002
</dep>
<dep _net0.v acfrequency>
  +7.49047107521343291658e-001-j1.66611657343555896738e+000
  +7.21806319065474322194e-001-j1.63374446529911820924e+000
  +6.95922568901217508675e-001-j1.59545406907584097489e+000
  +6.71630693775302822779e-001-j1.55173445322351066800e+000
  +6.47667538221814664823e-001-j1.50908499291287845345e+000
  +6.26940915492836481349e-001-j1.46848628774666134511e+000
  +6.06331689994448197467e-001-j1.43188361535467012509e+000
  +5.86214693210652115773e-001-j1.40260622520637001642e+000
  +5.67501030359101044098e-001-j1.37325534527986148348e+000
  +5.49083770427988060447e-001-j1.34440823824701438660e+000
  +5.31602625744024614995e-001-j1.31953385416339186165e+000
  +5.18335482415565707015e-001-j1.29320955332223408440e+000
  +5.07715674223429780376e-001-j1.27073808528891318836e+000
  +4.97541201103465224875e-001-j1.24945762439093410734e+000
  +4.84981373691113437641e-001-j1.22548564720855468479e+000
  +4.69506996128751574737e-001-j1.19958037721165888811e+000
  +4.51865681758381876332e-001-j1.16901119261692953977e+000
  +4.33218952094621578830e-001-j1.13484282945835190937e+000
  +4.19475146446436464309e-001-j1.10100507853680440462e+000
  +4.06488640540566492643e-001-j1.06602256043233967198e+000
  +3.97413876770398521998e-001-j1.03423047910845355979e+000
  +3.88058488606229157192e-001-j1.00277995815018416970e+000
  +3.78059433348477025305e-001-j9.67834444773471691548e-001
  +3.65755656973144382960e-001-j9.31305813179751584840e-001
  +3.51560677592950510117e-001-j8.94858892785423520877e-001
  +3.38384910996716470333e-001-j8.60060196390140530021e-001
  +3.29128962300073657499e-001-j8.33636509683725712705e-001
  +3.22630643244160186800e-001-j8.10953676939009215907e-001
  +3.17438819395443605487e-001-j7.95246790110030521426e-001
  +3.10833174433497894107e-001-j7.83055913600707920175e-001
  +3.05457587488436432821e-001-j7.70741650007182643733e-001
  +2.99672217348575964380e-001-j7.49283915938061539919e-001
  +2.95698543206839803421e-001-j7.23819930059639959907e-001
  +2.86613160424050827935e-001-j6.92298618300791313018e-001
  +2.80562318422643786064e-001-j6.62919743079699363975e-001
  +2.72119632558295188041e-001-j6.33992749926379106640e-001
  +2.66061546204965138074e-001-j6.03762271866966959699e-001
  +2.60496721688849908194e-001-j5.76640105367527189273e-001
  +2.55114767198173386653e-001-j5.44580996762150437718e-001
  +2.48540392794574044322e-001-j5.07989518110144033791e-001
  +2.44922005024889810620e-001-j4.70692288300598060680e-001
  +2.39783638840448787288e-001-j4.34308153770765592583e-001
  +2.34832694051001877877e-001-j4.03839704694877899005e-001
  +2.28212229671284155819e-001-j3.81941467510196475121e-001
  +2.23336462172408489746e-001-j3.68665336324065950890e-001
  +2.16759034192632871196e-001-j3.61385481617916559660e-001
  +2.12640453077300145557e-001-j3.60065965502394502717e-001
  +2.05977746436085407122e-001-j3.52510592455663795963e-001
  +2.01841909392134977175e-001-j3.35871366042950703079e-001
  +2.03134299476148583175e-001-j3.08703473842705522490e-001
  +2.04697703721347296080e-001-j2.72679899167167838492e-001
  +2.04953520138105055315e-001-j2.34010441420894915732e-001
  +1.96657694784475423067e-001-j1.99467805401781578256e-001
  +1.89173704902984435305e-001-j1.70054514032566994608e-001
  +1.82323098174400566318e-001-j1.44125297042007244341e-001
  +1.77324289144086238990e-001-j1.19305442701366309910e-001
  +1.76396677133834417495e-001-j9.36925960256036055585e-002
  +1.76669305466965603779e-001-j6.88863614567345877715e-002
  +1.78936462467799456411e-001-j4.53474977108653948266e-002
  +1.78828338419187327091e-001-j2.74434373767409346689e-002
  +1.76668744873693300823e-001-j1.42599805681420319092e-002
  +1.71986807724918866480e-001-j3.96589514484602025796e-003
  +1.65911446126514289245e-001+j3.05508151222413622608e-003
  +1.59523158551018839901e-001+j1.35542043367469673687e-002
  +1.54520344125220698839e-001+j3.05597772726702576751e-002
  +1.54060364366217866783e-001+j5.64146003193589304359e-002
  +1.56855259985276468404e-001+j8.34345447987649979638e-002
  +1.64377201561726360435e-001+j1.12455184414651437885e-001
  +1.65586404053628788446e-001+j1.40644855164813037396e-001
  +1.65516341251715437544e-001+j1.65870971731908456448e-001
  +1.61122672812240214091e-001+j1.89004122569657956321e-001
  +1.57624583986151561854e-001+j2.08307311628145280791e-001
  +1.54918897385634773967e-001+j2.26222952669338589482e-001
  +1.54830468536379800559e-001+j2.42715033370149657621e-001
  +1.55464834050170558344e-001+j2.54071012257985895388e-001
  +1.56126672202869992701e-001+j2.62527535670626421815e-001
  +1.57508827865806499968e-001+j2.68414424091515835258e-001
  +1.58774285526130487511e-001+j2.75670277883466707802e-001
  +1.58014547935376198362e-001+j2.85609967963241007105e-001
  +1.58091720040723943130e-001+j3.04664218386493934609e-001
  +1.56559633722107488518e-001+j3.29163013769786627627e-001
  +1.57348778729938743037e-001+j3.55109900598939931538e-001
  +1.59501373393855061522e-001+j3.80657494099233051355e-001
  +1.63836093634454088575e-001+j4.04857803624782186525e-001
  +1.69036112561213092143e-001+j4.27483889638862524230e-001
  +1.72495689854096023730e-001+j4.45538488224785700353e-001
  +1.77601220724287661712e-001+j4.65184212680319342237e-001
  +1.80691322892777117559e-001+j4.85405904541063581981e-001
  +1.81207476982972043311e-001+j5.01753690629379911492e-001
  +1.81829116508807175911e-001+j5.13963173341628443147e-001
  +1.81450536204788154260e-001+j5.22231407864844121569e-001
  +1.78104111050209484857e-001+j5.21807292249776510928e-001
  +1.74107131312068924567e-001+j5.19738819727705192442e-001
  +1.73278412562020811549e-001+j5.19660891412193515215e-001
  +1.73914576164726497609e-001+j5.24739344333115087515e-001
  +1.79438465286047066360e-001+j5.44492724575007636112e-001
  +1.86649855358094640678e-001+j5.70085080753119477492e-001
  +1.94233875289269303233e-001+j5.99998606062840056374e-001
  +2.00881954647229993283e-001+j6.27435019454057774091e-001
  +2.05517843210525269493e-001+j6.50914064310145423775e-001
  +2.08380135309553043976e-001+j6.66120912340952719966e-001
</dep>
<dep _net2.v acfrequency>
  +5.94794287794291054450e-003-j2.01990145802065680647e-002
  +5.79419354324958637420e-003-j2.02146777545255014463e-002
  +5.63931870574633457155e-003-j2.02400951523462532822e-002
  +5.44189467773404517148e-003-j2.02601576655174059338e-002
  +5.24178362979423485141e-003-j2.02874734212772078745e-002
  +5.07688111029372998034e-003-j2.02979400336657615778e-002
  +4.91746083499646543385e-003-j2.03049954934590992650e-002
  +4.80463240132281404343e-003-j2.03009989134991623849e-002
  +4.68516148920135148959e-003-j2.02841489047680088864e-002
  +4.56718509531620856651e-003-j2.02737737121188657530e-002
  +4.46280821237331551399e-003-j2.02560637702876161770e-002
  +4.35193533138914304126e-003-j2.02159123533580883936e-002
  +4.24266828072147449830e-003-j2.01567504035396125039e-002
  +4.14295600870382557668e-003-j2.01012426931770418759e-002
  +4.04320336810735491556e-003-j2.00580914108493095493e-002
  +3.92372652253898494823e-003-j2.00328293506921439882e-002
  +3.80973564094831511351e-003-j2.00283190477779787786e-002
  +3.67557419048720633234e-003-j2.00331733875089290642e-002
  +3.55755073384567089764e-003-j2.00177485778406660799e-002
  +3.41750075632847247209e-003-j1.99975849636153737987e-002
  +3.29143020005542592116e-003-j1.99683346299760790254e-002
  +3.16244723957033978257e-003-j1.99372759070726157660e-002
  +3.03063151848526361395e-003-j1.99145227595182751357e-002
  +2.91470495141906999620e-003-j1.99016541592998627563e-002
  +2.78218638557194229005e-003-j1.98912948054617219618e-002
  +2.66473130014611373634e-003-j1.98909767776481241630e-002
  +2.57073461652889551088e-003-j1.98571989437613116714e-002
  +2.48978474324694325215e-003-j1.98095464807697338450e-002
  +2.42996638821422160370e-003-j1.97510085577413639635e-002
  +2.37012110888486920990e-003-j1.96825483058045008766e-002
  +2.32650749716240435455e-003-j1.96177412895070929499e-002
  +2.24528401287360599575e-003-j1.95752097448615956787e-002
  +2.14610052774689800958e-003-j1.95360414643360215392e-002
  +2.04294775953843370242e-003-j1.95331439605538441373e-002
  +1.94305525055184311750e-003-j1.95142439010070403715e-002
  +1.84065036363384925897e-003-j1.95053822865327158853e-002
  +1.73428372261921000426e-003-j1.94755217387833287623e-002
  +1.64524091738420122702e-003-j1.94515584107935457503e-002
  +1.54197989714855354312e-003-j1.94219964059204538986e-002
  +1.41009849869840552493e-003-j1.94246269910589887397e-002
  +1.28641702905973095289e-003-j1.94084479184744758407e-002
  +1.15910934682056160003e-003-j1.94000504862550347818e-002
  +1.06139784026004074802e-003-j1.93786224395134237808e-002
  +9.96302708904786126637e-004-j1.93379754680066962003e-002
  +9.54960397013233409924e-004-j1.92712785732858174481e-002
  +9.35856931338253797761e-004-j1.91841197498110425934e-002
