<Qucs Dataset 0.0.19>
<indep acfrequency 10>
  +5.60000000000000000000e+009
  +5.62222222222222232819e+009
  +5.64444444444444465637e+009
  +5.66666666666666698456e+009
  +5.68888888888888931274e+009
  +5.71111111111111068726e+009
  +5.73333333333333301544e+009
  +5.75555555555555534363e+009
  +5.77777777777777767181e+009
  +5.80000000000000000000e+009
</indep>
<indep frequency 10>
  +5.60000000000000000000e+009
  +5.62222222222222232819e+009
  +5.64444444444444465637e+009
  +5.66666666666666698456e+009
  +5.68888888888888931274e+009
  +5.71111111111111068726e+009
  +5.73333333333333301544e+009
  +5.75555555555555534363e+009
  +5.77777777777777767181e+009
  +5.80000000000000000000e+009
</indep>
<dep SWR frequency>
  +3.19598792947630983008e+001
  +2.95011330377972278427e+001
  +2.68644659012712985202e+001
  +2.40441954699142854679e+001
  +2.20427911915889858108e+001
  +2.03624186660198809307e+001
  +1.87942134108893839084e+001
  +1.79516731262523805412e+001
  +1.79251920593889337852e+001
  +1.83302179684230672763e+001
</dep>
<dep ZofS11 frequency>
  +2.89197461652159271139e+000+j4.60165062676198530767e+001
  +3.53473346800430343606e+000+j5.20329570323035000001e+001
  +4.56002871739641957305e+000+j6.01068218963466165405e+001
  +6.37790114246896333583e+000+j7.16949115045537723745e+001
  +9.35735746863490369662e+000+j8.80157891369961475903e+001
  +1.52488591220218285827e+001+j1.13270025208666851313e+002
  +3.08729727137583189744e+001+j1.60126998651213938274e+002
  +8.58375714455922320667e+001+j2.59648593566529939380e+002
  +4.76577711485853740214e+002+j4.45915224177392303773e+002
  +3.47391688922793889560e+002-j4.42893752821634279826e+002
</dep>
<dep dBS11 frequency>
  -5.43727075152337202546e-001
  -5.89076944112992606506e-001
  -6.46944166629858985473e-001
  -7.22910687355202696835e-001
  -7.88634773730742644204e-001
  -8.53816315125991653900e-001
  -9.25189068288316707189e-001
  -9.68699755111756988235e-001
  -9.70133800067343288198e-001
  -9.48654523069914046296e-001
</dep>
<dep outV acfrequency>
  +1.10510715939538179710e-003+j1.09157155835107560864e-003
  +1.22521844410723420096e-003+j1.07256463192599419722e-003
  +1.36452291364631090806e-003+j1.03408500701323603777e-003
  +1.52565394371775896534e-003+j9.65852148238705498703e-004
  +1.68296145087638133152e-003+j8.63508347967260610038e-004
  +1.83027153266472749835e-003+j7.20923773242158720531e-004
  +1.96407943054469286484e-003+j5.28894786494773518591e-004
  +2.05125752625856310959e-003+j3.06086513886835113324e-004
  +2.08195408018813435391e-003+j7.27177130155463061168e-005
  +2.06016400559834271522e-003-j1.67004728739999445258e-004
</dep>
<dep Pr1.v acfrequency>
  +1.10510715939538179710e-003+j1.09157155835107560864e-003
  +1.22521844410723420096e-003+j1.07256463192599419722e-003
  +1.36452291364631090806e-003+j1.03408500701323603777e-003
  +1.52565394371775896534e-003+j9.65852148238705498703e-004
  +1.68296145087638133152e-003+j8.63508347967260610038e-004
  +1.83027153266472749835e-003+j7.20923773242158720531e-004
  +1.96407943054469286484e-003+j5.28894786494773518591e-004
  +2.05125752625856310959e-003+j3.06086513886835113324e-004
  +2.08195408018813435391e-003+j7.27177130155463061168e-005
  +2.06016400559834271522e-003-j1.67004728739999445258e-004
</dep>
<dep _net0.v acfrequency>
  +1.10510715939538179710e-003+j1.09157155835107560864e-003
  +1.22521844410723420096e-003+j1.07256463192599419722e-003
  +1.36452291364631090806e-003+j1.03408500701323603777e-003
  +1.52565394371775896534e-003+j9.65852148238705498703e-004
  +1.68296145087638133152e-003+j8.63508347967260610038e-004
  +1.83027153266472749835e-003+j7.20923773242158720531e-004
  +1.96407943054469286484e-003+j5.28894786494773518591e-004
  +2.05125752625856310959e-003+j3.06086513886835113324e-004
  +2.08195408018813435391e-003+j7.27177130155463061168e-005
  +2.06016400559834271522e-003-j1.67004728739999445258e-004
</dep>
<dep _net1.v acfrequency>
  +1.64292338159086254157e-001+j1.66488050006681292947e-001
  +1.84844927541118864145e-001+j1.66019301463836921329e-001
  +2.08419962532437497149e-001+j1.62204518521958829247e-001
  +2.35136416652960228424e-001+j1.53262754165946701868e-001
  +2.61997262695360499940e-001+j1.38878104413937580874e-001
  +2.87752081173334672837e-001+j1.17878922877389255564e-001
  +3.10966678828262010903e-001+j8.84838004234001496151e-002
  +3.27525067975002526222e-001+j5.37710312527117789694e-002
  +3.35988707677094766701e-001+j1.66545075101246324578e-002
  +3.35697585126236985875e-001-j2.22435578100737135765e-002
</dep>
<dep _net12.v acfrequency>
  +1.31031049251693176849e-001+j1.41834243871322096542e-001
  +1.46845273128585751543e-001+j1.40304459497112232746e-001
  +1.64340090167003155530e-001+j1.35822488184509371223e-001
  +1.83135708975951910782e-001+j1.26985067520631544902e-001
  +2.02264993858487812650e-001+j1.14410084160885341942e-001
  +2.20431714016133512013e-001+j9.71593962523093351846e-002
  +2.35606969131948895679e-001+j7.37410516424340800601e-002
  +2.46347191054109015962e-001+j4.69257339423034339210e-002
  +2.51997558393469545113e-001+j1.86184797464618891072e-002
  +2.50922642932933537274e-001-j1.07974726865430747935e-002
</dep>
<dep S[1,1] frequency>
  -7.61162884099846892560e-002+j9.36231106691143288856e-001
  +3.94594150818687317006e-002+j9.33595139923500738632e-001
  +1.72031579266137657491e-001+j9.12143038975007369729e-001
  +3.22269241411357154625e-001+j8.61859802800011509660e-001
  +4.73318879003530479377e-001+j7.80968972760574420278e-001
  +6.18148866532938545681e-001+j6.62881897028820055162e-001
  +7.48694142623263725334e-001+j4.97580975879732101408e-001
  +8.41808807581221785199e-001+j3.02376729715016445699e-001
  +8.89403351241302986274e-001+j9.36551782363609641724e-002
  +8.87766248830880844167e-001-j1.25084717758649377473e-001
</dep>
<indep Pr1.V 1>
  +0.00000000000000000000e+000
</indep>
<indep _net12.V 1>
  +0.00000000000000000000e+000
</indep>
<indep _net0.V 1>
  +0.00000000000000000000e+000
</indep>
<indep _net1.V 1>
  +0.00000000000000000000e+000
</indep>
