<Qucs Dataset 0.0.19>
<indep acfrequency 101>
  +5.00000000000000000000e+009
  +5.01000000000000000000e+009
  +5.02000000000000000000e+009
  +5.03000000000000000000e+009
  +5.04000000000000000000e+009
  +5.05000000000000000000e+009
  +5.06000000000000000000e+009
  +5.07000000000000000000e+009
  +5.08000000000000000000e+009
  +5.09000000000000000000e+009
  +5.10000000000000000000e+009
  +5.11000000000000000000e+009
  +5.12000000000000000000e+009
  +5.13000000000000000000e+009
  +5.14000000000000000000e+009
  +5.15000000000000000000e+009
  +5.16000000000000000000e+009
  +5.17000000000000000000e+009
  +5.18000000000000000000e+009
  +5.19000000000000000000e+009
  +5.20000000000000000000e+009
  +5.21000000000000000000e+009
  +5.22000000000000000000e+009
  +5.23000000000000000000e+009
  +5.24000000000000000000e+009
  +5.25000000000000000000e+009
  +5.26000000000000000000e+009
  +5.27000000000000000000e+009
  +5.28000000000000000000e+009
  +5.29000000000000000000e+009
  +5.30000000000000000000e+009
  +5.31000000000000000000e+009
  +5.32000000000000000000e+009
  +5.33000000000000000000e+009
  +5.34000000000000000000e+009
  +5.35000000000000000000e+009
  +5.36000000000000000000e+009
  +5.37000000000000000000e+009
  +5.38000000000000000000e+009
  +5.39000000000000000000e+009
  +5.40000000000000000000e+009
  +5.41000000000000000000e+009
  +5.42000000000000000000e+009
  +5.43000000000000000000e+009
  +5.44000000000000000000e+009
  +5.45000000000000000000e+009
  +5.46000000000000000000e+009
  +5.47000000000000000000e+009
  +5.48000000000000000000e+009
  +5.49000000000000000000e+009
  +5.50000000000000000000e+009
  +5.51000000000000000000e+009
  +5.52000000000000000000e+009
  +5.53000000000000000000e+009
  +5.54000000000000000000e+009
  +5.55000000000000000000e+009
  +5.56000000000000000000e+009
  +5.57000000000000000000e+009
  +5.58000000000000000000e+009
  +5.59000000000000000000e+009
  +5.60000000000000000000e+009
  +5.61000000000000000000e+009
  +5.62000000000000000000e+009
  +5.63000000000000000000e+009
  +5.64000000000000000000e+009
  +5.65000000000000000000e+009
  +5.66000000000000000000e+009
  +5.67000000000000000000e+009
  +5.68000000000000000000e+009
  +5.69000000000000000000e+009
  +5.70000000000000000000e+009
  +5.71000000000000000000e+009
  +5.72000000000000000000e+009
  +5.73000000000000000000e+009
  +5.74000000000000000000e+009
  +5.75000000000000000000e+009
  +5.76000000000000000000e+009
  +5.77000000000000000000e+009
  +5.78000000000000000000e+009
  +5.79000000000000000000e+009
  +5.80000000000000000000e+009
  +5.81000000000000000000e+009
  +5.82000000000000000000e+009
  +5.83000000000000000000e+009
  +5.84000000000000000000e+009
  +5.85000000000000000000e+009
  +5.86000000000000000000e+009
  +5.87000000000000000000e+009
  +5.88000000000000000000e+009
  +5.89000000000000000000e+009
  +5.90000000000000000000e+009
  +5.91000000000000000000e+009
  +5.92000000000000000000e+009
  +5.93000000000000000000e+009
  +5.94000000000000000000e+009
  +5.95000000000000000000e+009
  +5.96000000000000000000e+009
  +5.97000000000000000000e+009
  +5.98000000000000000000e+009
  +5.99000000000000000000e+009
  +6.00000000000000000000e+009
</indep>
<indep frequency 11>
  +5.00000000000000000000e+009
  +5.10000000000000000000e+009
  +5.20000000000000000000e+009
  +5.30000000000000000000e+009
  +5.40000000000000000000e+009
  +5.50000000000000000000e+009
  +5.60000000000000000000e+009
  +5.70000000000000000000e+009
  +5.80000000000000000000e+009
  +5.90000000000000000000e+009
  +6.00000000000000000000e+009
</indep>
<dep ZofS22 frequency>
  +5.73027977108357973179e+001-j7.78505728687730993443e+001
  +5.51307423019304891909e+001-j7.67919205434178167025e+001
  +5.18052670429981176881e+001-j7.64681093196833785441e+001
  +4.81025789209290763893e+001-j7.53521079950436103445e+001
  +4.46838513090999285282e+001-j7.35026323958754375099e+001
  +4.04178867438145914548e+001-j7.21659642277298729596e+001
  +3.74086708491959853973e+001-j6.99874579826558402829e+001
  +3.40306977333972824340e+001-j6.76004326252452898416e+001
  +3.09155368618479045040e+001-j6.54637825749993282898e+001
  +2.83408467553983740572e+001-j6.26711291962573611158e+001
  +2.61642087875551148102e+001-j6.04553415844479786756e+001
</dep>
<dep dBS21 frequency>
  -2.33021535608780316906e+000
  -2.32530421007091359087e+000
  -2.37806710765288809029e+000
  -2.45433165538565489783e+000
  -2.48683287522557883165e+000
  -2.60235672637744608338e+000
  -2.65331794559009814805e+000
  -2.74546248464790698662e+000
  -2.87361718685084710501e+000
  -2.94887269336085111604e+000
  -3.00109109235818172223e+000
</dep>
<dep ZofS11 frequency>
  +1.64682531719990770114e+001-j2.04951091908958353827e+001
  +1.54988727312447220896e+001-j1.69807304966194401175e+001
  +1.45387400108244690955e+001-j1.43419389476147660645e+001
  +1.37690194198982531759e+001-j1.20521741110912259387e+001
  +1.33595612379987951357e+001-j9.69163823528346490832e+000
  +1.25360111439880661521e+001-j8.07378890524433678877e+000
  +1.19806364931090758574e+001-j6.12251254478376782941e+000
  +1.13158828342043786819e+001-j4.69877034925391168230e+000
  +1.06671704488534295763e+001-j3.69336153548828960425e+000
  +1.03340951891842376398e+001-j2.39398904087010233610e+000
  +1.00814971949614076152e+001-j1.42745920514931201595e+000
</dep>
<dep dBS11 frequency>
  -4.95905343018840483182e+000
  -4.90846101874107265672e+000
  -4.75273493084904696815e+000
  -4.60722525555019579713e+000
  -4.56378293905038567857e+000
  -4.32495790022551318543e+000
  -4.17600630066624756154e+000
  -3.96262848814971491151e+000
  -3.74191232318521072031e+000
  -3.63395018917672629755e+000
  -3.54823093877037454291e+000
</dep>
<dep _net0.v acfrequency>
  +4.41386686963140828510e+000-j1.42108502425457006169e+000
  +4.39238793769706603598e+000-j1.42737967016721123414e+000
  +4.36919595999621357407e+000-j1.42427778502972635088e+000
  +4.34308163173710592986e+000-j1.41722852640801311175e+000
  +4.31886070848563274893e+000-j1.41231442110867755346e+000
  +4.29839774190033541146e+000-j1.40993692376918589027e+000
  +4.28178391939554359169e+000-j1.41518156778042802912e+000
  +4.26896531709328730386e+000-j1.42071560573116650872e+000
  +4.25433783523143294047e+000-j1.42679737536579409607e+000
  +4.23782988223096523939e+000-j1.43189780334890981450e+000
  +4.21758352518858004032e+000-j1.43490644494431096589e+000
  +4.19466354281825548611e+000-j1.43367819823633091403e+000
  +4.17117032505815377164e+000-j1.43256595994831625873e+000
  +4.14883822281529557330e+000-j1.43624073950732977778e+000
  +4.13207632500378974072e+000-j1.44012414294710877627e+000
  +4.11674360532027794335e+000-j1.44828803889166390917e+000
  +4.10175628715094564569e+000-j1.45415509906142514929e+000
  +4.08411951783531446125e+000-j1.45892837084531645786e+000
  +4.06650567373770144286e+000-j1.45816793533699917695e+000
  +4.04573168952937578524e+000-j1.45348880093665289159e+000
  +4.02608082455429361346e+000-j1.44985309666572925735e+000
  +4.00474600357221977021e+000-j1.44741854320842922021e+000
  +3.98725037351676769859e+000-j1.44441272527404307446e+000
  +3.97082922461261889069e+000-j1.44118377209283177187e+000
  +3.95447771669890935087e+000-j1.44388774573906597531e+000
  +3.93848628476932827169e+000-j1.44460282285861096874e+000
  +3.92193836703809761701e+000-j1.44674637890533874796e+000
  +3.90702169741879812292e+000-j1.44686690483854252243e+000
  +3.89011926334677449191e+000-j1.44736241926911390898e+000
  +3.87168674605875873240e+000-j1.45165143505747473718e+000
  +3.85370082875180353099e+000-j1.45376517620858769497e+000
  +3.83778482231205453346e+000-j1.45406922402380955894e+000
  +3.82600101706210482533e+000-j1.45220712269393836813e+000
  +3.81233643085328299804e+000-j1.45171388294589820411e+000
  +3.79892696858489520295e+000-j1.45011880911811874562e+000
  +3.78553365008955333693e+000-j1.45180648418120505916e+000
  +3.77000882105086976281e+000-j1.45228349659784861103e+000
  +3.75741343021110418832e+000-j1.45073172865988064828e+000
  +3.74094613939758868781e+000-j1.44824142808072542365e+000
  +3.72415485325909312309e+000-j1.44327416693383203672e+000
  +3.70886960289130396262e+000-j1.43824418621575067512e+000
  +3.69133061540531715039e+000-j1.43117108744191567915e+000
  +3.67407019068849916010e+000-j1.43006532495744642652e+000
  +3.65705373016122159413e+000-j1.43306680640584893638e+000
  +3.64071999963296111247e+000-j1.43621651361812885384e+000
  +3.62339006466096913428e+000-j1.44277937556699287214e+000
  +3.60711844137869785953e+000-j1.45118836999677358612e+000
  +3.58706708046113620370e+000-j1.45829954532611538731e+000
  +3.56893095583271824367e+000-j1.45634673043951923255e+000
  +3.55333699975384043057e+000-j1.44962464885825359495e+000
  +3.54037074963745368450e+000-j1.43976942271013474972e+000
  +3.52779652234455332049e+000-j1.43398737611064985842e+000
  +3.51602537187195229862e+000-j1.43405954219676656791e+000
  +3.50453255655751716446e+000-j1.43930792008323504838e+000
  +3.49297827265149685161e+000-j1.44862876187392153327e+000
  +3.48034036709991712044e+000-j1.45197211203270648561e+000
  +3.46580815332846814414e+000-j1.45118874264810648889e+000
  +3.44836431630377271418e+000-j1.44341443536584468355e+000
  +3.42752669567984646903e+000-j1.43456748652635868169e+000
  +3.40799660774669943564e+000-j1.42539181997718111816e+000
  +3.39100385166110207535e+000-j1.42181890993304005377e+000
  +3.37241157619653098010e+000-j1.42506383576364403787e+000
  +3.35620589858738105349e+000-j1.43599293475559219857e+000
  +3.33910692729315705662e+000-j1.44821847666343384020e+000
  +3.32290131472676186775e+000-j1.45492724114569660365e+000
  +3.30716081301253872482e+000-j1.45339987045231056051e+000
  +3.29308729001757560795e+000-j1.44490858274811651007e+000
  +3.28202012836643319815e+000-j1.43375156684787685712e+000
  +3.26911861918870316757e+000-j1.42508205712034641266e+000
  +3.25728977685974463441e+000-j1.42481449171746521465e+000
  +3.24374040564233911965e+000-j1.43287749321978585826e+000
  +3.23159405701403823485e+000-j1.44384087747269940216e+000
  +3.22060244819792051985e+000-j1.45005991231213737791e+000
  +3.20745403195079514802e+000-j1.45023849515392133647e+000
  +3.19347551293469056333e+000-j1.44820598334454042622e+000
  +3.17675663239975492047e+000-j1.44186889252949490547e+000
  +3.15949758985797091171e+000-j1.43468382798111893095e+000
  +3.14407469364954117452e+000-j1.43198213537939489370e+000
  +3.13053927836892986747e+000-j1.43020929302555810381e+000
  +3.11567954107755795690e+000-j1.43569056921866966547e+000
  +3.10332855735016455156e+000-j1.44389186157659610288e+000
  +3.09148129526105819309e+000-j1.44968017388868553041e+000
  +3.08069883444710734821e+000-j1.44747424281548697778e+000
  +3.06875289948483542801e+000-j1.44397865424932869693e+000
  +3.05681321478574430373e+000-j1.43644511345415870629e+000
  +3.04458744720082918889e+000-j1.43195421206320694374e+000
  +3.03139684954957111529e+000-j1.43051420690584119022e+000
  +3.01905730840934616310e+000-j1.43016162527483903233e+000
  +3.00765016143100494261e+000-j1.43145628935798030490e+000
  +2.99539478270346259947e+000-j1.43453748966236882545e+000
  +2.98155398661871684496e+000-j1.43620003935334583645e+000
  +2.96845396223331592367e+000-j1.43628428404491281789e+000
  +2.95304344861405443368e+000-j1.43689660844478472868e+000
  +2.93684291900567906453e+000-j1.43641765056769599163e+000
  +2.92448308162572434554e+000-j1.43636213161278236683e+000
  +2.91726255477891704970e+000-j1.43189004401242447884e+000
  +2.91271491743874966218e+000-j1.42955395944853735912e+000
  +2.90603179817699430743e+000-j1.42826282606920140772e+000
  +2.90258728628590834120e+000-j1.42743792511871281370e+000
  +2.89418265987244271997e+000-j1.42730615930626036914e+000
  +2.88487602895079486842e+000-j1.42806128127906717395e+000
</dep>
<dep _net2.v acfrequency>
  +5.87110773212894532236e+000-j2.65246887704924905194e+000
  +5.84535106887617050830e+000-j2.67128081387584526141e+000
  +5.81267564594639729592e+000-j2.68011738627597040363e+000
  +5.77455154289250582877e+000-j2.68598044589326079290e+000
  +5.73979318836632579348e+000-j2.69337564208893009976e+000
  +5.71077148277275981059e+000-j2.70175889229356513965e+000
  +5.69030313712750857036e+000-j2.71693697491960772794e+000
  +5.67440886297486279943e+000-j2.73043272433953321254e+000
  +5.65675175920676931440e+000-j2.74553741069074286330e+000
  +5.63643631280602708244e+000-j2.76053184852129929183e+000
  +5.61073139313995472577e+000-j2.77514875841600883177e+000
  +5.57971130426336525687e+000-j2.78636833232703429175e+000
  +5.54813776883684184327e+000-j2.79807638078296117001e+000
  +5.52053235344785875327e+000-j2.81469022806937418935e+000
  +5.49947020595689384237e+000-j2.82855112900894312133e+000
  +5.48240741152456756424e+000-j2.84655038415499062054e+000
  +5.46453008880924429036e+000-j2.86174182376659569371e+000
  +5.44306861996238122714e+000-j2.87714114656456043662e+000
  +5.41864838675427762382e+000-j2.88623821250097289948e+000
  +5.38851287824956415307e+000-j2.89263798623251222608e+000
  +5.36025797626800404316e+000-j2.89965780699513508978e+000
  +5.33078077596561961116e+000-j2.90901312753506946507e+000
  +5.30538167898396917366e+000-j2.91564981838639525336e+000
  +5.28110275334692325089e+000-j2.92147913491925237395e+000
  +5.26020700244057248796e+000-j2.93402233119660049709e+000
  +5.23865093787406355119e+000-j2.94413838591611565221e+000
  +5.21728953492582459006e+000-j2.95620188981000797668e+000
  +5.19667698687929746626e+000-j2.96509914162045795649e+000
  +5.17406260400875872563e+000-j2.97555031476927034362e+000
  +5.15187728383672283172e+000-j2.99115162520419941572e+000
  +5.12902155770836287729e+000-j3.00407943474082994584e+000
  +5.10751368779994052716e+000-j3.01384179535112917137e+000
  +5.08945112204488125940e+000-j3.01888220506685200917e+000
  +5.07006686106649784307e+000-j3.02653674884724743777e+000
  +5.05036896890893949319e+000-j3.03283928498710464439e+000
  +5.03256173694756903103e+000-j3.04282501340014244207e+000
  +5.01171839876336822073e+000-j3.05268320188486574907e+000
  +4.99301827470812575882e+000-j3.05864624583953581549e+000
  +4.96949500835579538460e+000-j3.06578777797809731709e+000
  +4.94422934061289964802e+000-j3.07039652166700438585e+000
  +4.92062154368733395415e+000-j3.07412036588027470785e+000
  +4.89336771156261285398e+000-j3.07690629142752669622e+000
  +4.86985524988944984415e+000-j3.08618850675858258370e+000
  +4.84899781092352988310e+000-j3.09990426288989429082e+000
  +4.82901939248517386716e+000-j3.11341248466983966381e+000
  +4.80994385838181859327e+000-j3.13127563145165366265e+000
  +4.79314596890372168758e+000-j3.15057300465708856052e+000
  +4.77149227541487608306e+000-j3.17062774115793866159e+000
  +4.74676006969893204968e+000-j3.17963538755746899511e+000
  +4.72208794427070621680e+000-j3.18197671249147528982e+000
  +4.69849310482951043610e+000-j3.17940710948989835316e+000
  +4.67769743460319631367e+000-j3.18111467642855361149e+000
  +4.66119814913362695563e+000-j3.18878676658331938754e+000
  +4.64804210475659651536e+000-j3.20196159407119296247e+000
  +4.63722910548335409686e+000-j3.21961147009037862432e+000
  +4.62177685192920417734e+000-j3.23138213079112457393e+000
  +4.60187612320791661347e+000-j3.23978970920790398935e+000
  +4.57473607644874125100e+000-j3.24234813794694654021e+000
  +4.54330858425614270146e+000-j3.24579441865226137054e+000
  +4.51313154063533783500e+000-j3.24817732462183883513e+000
  +4.48903028103446910535e+000-j3.25517763150897110336e+000
  +4.46726581687172163981e+000-j3.27052102129182076240e+000
  +4.45267567865954649875e+000-j3.29275289626875178328e+000
  +4.43795128661612103826e+000-j3.31690447631374984994e+000
  +4.42096869528746072575e+000-j3.33458850062658029856e+000
  +4.39962716059357372700e+000-j3.34316415971381131200e+000
  +4.37594623400088345022e+000-j3.34331339537475225043e+000
  +4.35389965243366017233e+000-j3.33886128185716124506e+000
  +4.33137940590158532217e+000-j3.33821607285107857521e+000
  +4.31505171793417385828e+000-j3.34593868648943537636e+000
  +4.30191905803190000057e+000-j3.36358971727880717850e+000
  +4.29206954069170620869e+000-j3.38347846901595250557e+000
  +4.28063196432198633801e+000-j3.39761536704542788101e+000
  +4.26329048286716272287e+000-j3.40664423763483537044e+000
  +4.24375896737873947728e+000-j3.41385325840357944926e+000
  +4.21874512391386868870e+000-j3.41819897709603104374e+000
  +4.19267104812410984493e+000-j3.42202476330898575085e+000
  +4.17128543785889949191e+000-j3.42951322162062943733e+000
  +4.15248218683636594051e+000-j3.43686344021843925844e+000
  +4.13673880198192822633e+000-j3.45267579131636104250e+000
  +4.12533647977322104339e+000-j3.46981667369003954349e+000
  +4.11302683722142425893e+000-j3.48411243777489243456e+000
  +4.09696376354201152736e+000-j3.48938703520847504080e+000
  +4.07890833227196658584e+000-j3.49405114508287262254e+000
  +4.05839126585600595831e+000-j3.49452686926319433525e+000
  +4.03946082740009870804e+000-j3.49839087617734278979e+000
  +4.02142699653886559474e+000-j3.50605721898051436725e+000
  +4.00497553052239663174e+000-j3.51435154454595011231e+000
  +3.99053704871729575387e+000-j3.52379608986387182767e+000
  +3.97635502952873887139e+000-j3.53562931674085056954e+000
  +3.95968453075164950050e+000-j3.54698992643274868541e+000
  +3.94283059779433919800e+000-j3.55627633569029288907e+000
  +3.92395432524498977145e+000-j3.56756788332730012669e+000
  +3.90362146759490524772e+000-j3.57825298874783559455e+000
  +3.88753754172006660284e+000-j3.58699738588764560632e+000
  +3.87398287611853620049e+000-j3.58800906709644085169e+000
  +3.86450731931428359545e+000-j3.58955210261999457799e+000
  +3.85350252020316652590e+000-j3.59351641569137258969e+000
  +3.84610276397395312031e+000-j3.59592724770275928847e+000
  +3.83408234006092385471e+000-j3.60217687230807070975e+000
  +3.82171901098178423695e+000-j3.60990940454379360958e+000
</dep>
<dep _net1.v acfrequency>
  +6.81128272096174391947e+000-j1.45932072215721486685e+000
  +6.80869354550226013600e+000-j1.48182098288040142720e+000
  +6.80903258752158890843e+000-j1.50637939798250775070e+000
  +6.80989346802839357053e+000-j1.53418651670944949927e+000
  +6.81108804731359995799e+000-j1.56225018835500062409e+000
  +6.80844102368168080375e+000-j1.58466063521320532637e+000
  +6.80193343080717838234e+000-j1.60665183398145527960e+000
  +6.79234309832725191569e+000-j1.62245050677361124514e+000
  +6.78261648477820067171e+000-j1.63902346073208526889e+000
  +6.77591493064806371649e+000-j1.66012148484245170010e+000
  +6.77001253800123237170e+000-j1.67990787491932414000e+000
  +6.76628123781158397065e+000-j1.70215168547033535162e+000
  +6.76195388012501652497e+000-j1.72550340114164790783e+000
  +6.75600636168903712075e+000-j1.74723558017918723095e+000
  +6.74954706631685041884e+000-j1.76586533253543298549e+000
  +6.74047086431410491514e+000-j1.78624304999690686202e+000
  +6.73060898951983244132e+000-j1.80492804286290375870e+000
  +6.72334768653329195587e+000-j1.82701800689057680671e+000
  +6.71696052923076081242e+000-j1.84823209601672111546e+000
  +6.71252337289478440141e+000-j1.87334052036678833097e+000
  +6.70910922310168178484e+000-j1.89757125451278052530e+000
  +6.70200641362277593771e+000-j1.92133207795620419844e+000
  +6.69464978152021572555e+000-j1.94482998003790852337e+000
  +6.68329403249712150625e+000-j1.96450994217533492225e+000
  +6.67173723143819241699e+000-j1.98747272396357987922e+000
  +6.65975010533140210356e+000-j2.00827864178374682069e+000
  +6.64993074604682732343e+000-j2.02683749529741197293e+000
  +6.64069796647602572648e+000-j2.04700995704957389165e+000
  +6.63167934162677141785e+000-j2.06536058152303825253e+000
  +6.62460491863012634894e+000-j2.08489610201281561075e+000
  +6.61751951861917220299e+000-j2.10397601905632036789e+000
  +6.60863199764211017850e+000-j2.12410096092013889191e+000
  +6.59781389152616970506e+000-j2.14817072632536998356e+000
  +6.58766426473586452772e+000-j2.16935722588294943591e+000
  +6.57648885910706759717e+000-j2.18979658336713622901e+000
