<Qucs Dataset 0.0.19>
<indep acfrequency 10>
  +5.60000000000000000000e+009
  +5.62222222222222232819e+009
  +5.64444444444444465637e+009
  +5.66666666666666698456e+009
  +5.68888888888888931274e+009
  +5.71111111111111068726e+009
  +5.73333333333333301544e+009
  +5.75555555555555534363e+009
  +5.77777777777777767181e+009
  +5.80000000000000000000e+009
</indep>
<indep frequency 10>
  +5.60000000000000000000e+009
  +5.62222222222222232819e+009
  +5.64444444444444465637e+009
  +5.66666666666666698456e+009
  +5.68888888888888931274e+009
  +5.71111111111111068726e+009
  +5.73333333333333301544e+009
  +5.75555555555555534363e+009
  +5.77777777777777767181e+009
  +5.80000000000000000000e+009
</indep>
<dep SWR frequency>
  +5.84792474340179069259e+001
  +6.25220826235130076043e+001
  +6.65407419888885414139e+001
  +6.42928117995066372714e+001
  +6.40590189370688420922e+001
  +6.85817350306290620665e+001
  +7.08440805364858618987e+001
  +7.07467797789174284162e+001
  +7.08898181480074640604e+001
  +7.39638781810113954407e+001
</dep>
<dep ZofS11 frequency>
  +1.10682324564786127574e+000+j2.71298876367693324596e+001
  +1.05752119865765670248e+000+j2.83839524201973283368e+001
  +1.01791054886097120935e+000+j2.97717130134807135278e+001
  +1.08351054562866200293e+000+j3.13490928406880478008e+001
  +1.12004699749574432310e+000+j3.29708252307944320592e+001
  +1.07730566195076193914e+000+j3.45514023244240462418e+001
  +1.07393182421574517882e+000+j3.61066511494884281319e+001
  +1.10639507576926798826e+000+j3.75932476499473011700e+001
  +1.13705750669480498694e+000+j3.91126460776219744275e+001
  +1.12820784010107821871e+000+j4.08879100022934736103e+001
</dep>
<dep dBS11 frequency>
  -2.97087831656602130437e-001
  -2.77873994585635941679e-001
  -2.61089473208247213609e-001
  -2.70219638314907917298e-001
  -2.71206004806235467797e-001
  -2.53318329751728799071e-001
  -2.45227731712664598351e-001
  -2.45565047710845890672e-001
  -2.45069491507046655077e-001
  -2.34882733329086462737e-001
</dep>
<dep Pr1.v acfrequency>
  +3.80778470932464810188e-004+j6.87241776134237826977e-004
  +3.89685189591146513653e-004+j6.73687357133623092309e-004
  +4.00419758537074029978e-004+j6.61158574191192003819e-004
  +4.15833241926582067305e-004+j6.48398789903528770598e-004
  +4.30252200793490233166e-004+j6.36440558178834369166e-004
  +4.42138167185913239995e-004+j6.25272790850216219662e-004
  +4.52974525755031989013e-004+j6.13265798736588579193e-004
  +4.61664408240230984479e-004+j5.99421679454652852476e-004
  +4.69566468379520643960e-004+j5.85217931535891573540e-004
  +4.79551072681231086402e-004+j5.72383715669339638785e-004
</dep>
<dep _net0.v acfrequency>
  +3.80778470932464810188e-004+j6.87241776134237826977e-004
  +3.89685189591146513653e-004+j6.73687357133623092309e-004
  +4.00419758537074029978e-004+j6.61158574191192003819e-004
  +4.15833241926582067305e-004+j6.48398789903528770598e-004
  +4.30252200793490233166e-004+j6.36440558178834369166e-004
  +4.42138167185913239995e-004+j6.25272790850216219662e-004
  +4.52974525755031989013e-004+j6.13265798736588579193e-004
  +4.61664408240230984479e-004+j5.99421679454652852476e-004
  +4.69566468379520643960e-004+j5.85217931535891573540e-004
  +4.79551072681231086402e-004+j5.72383715669339638785e-004
</dep>
<dep _net5.v acfrequency>
  -1.06387831435877586173e-001-j1.87520938670264064596e-001
  -1.10553563862201997825e-001-j1.87118900202895371843e-001
  -1.15252793718334078932e-001-j1.86743033618814724406e-001
  -1.20846450665104382383e-001-j1.85983369569143769384e-001
  -1.26394736762919873696e-001-j1.85188217672455246454e-001
  -1.31462533924249086459e-001-j1.84469059995059359025e-001
  -1.36276522776350356159e-001-j1.83350701589679254688e-001
  -1.40636781366816343564e-001-j1.81851399429634463800e-001
  -1.44934538989206163073e-001-j1.80250910833296945635e-001
  -1.50021504886282130986e-001-j1.78831808325892710476e-001
</dep>
<dep _net3.v acfrequency>
  -6.47399730959248159712e-002-j1.07712900702445116274e-001
  -6.71388385804357890052e-002-j1.07902211475391779372e-001
  -7.00596112514235563884e-002-j1.08373370346950145815e-001
  -7.40515092190291990271e-002-j1.08841817504884905143e-001
  -7.79715108233180187458e-002-j1.09300939204095975965e-001
  -8.13119300284447649174e-002-j1.09689534831791765668e-001
  -8.45122601786298804916e-002-j1.09594399715748705426e-001
  -8.73573624560995409816e-002-j1.08951362033371856874e-001
  -9.01481110967299464898e-002-j1.08219680421349828681e-001
  -9.36653486505923948968e-002-j1.08059316670625085721e-001
</dep>
<dep _net2.v acfrequency>
  -1.41342029634801136240e-001-j2.53882632895034821008e-001
  -1.46860673799053154109e-001-j2.52838677421074686791e-001
  -1.52934577332975274455e-001-j2.51636143095042286166e-001
  -1.59803890764563416571e-001-j2.49756879155586808405e-001
  -1.66630846441947505499e-001-j2.47820732731063309018e-001
  -1.73013464753645818117e-001-j2.46067965785487674513e-001
  -1.79036330183433289864e-001-j2.43958633339946939778e-001
  -1.84502826733397601311e-001-j2.41571886195334623038e-001
  -1.89885687122774898805e-001-j2.39071113635690224442e-001
  -1.96120349076729261206e-001-j2.36480226755183819964e-001
</dep>
<dep _net4.v acfrequency>
  +6.58207075003724023654e-002+j1.38571369931265842013e-001
  +6.89475493922344501163e-002+j1.36870370240608885126e-001
  +7.17126919708549886989e-002+j1.34251249965304519929e-001
  +7.31841738187764129231e-002+j1.30587644998648111372e-001
  +7.47962438221758396661e-002+j1.26867786629936724063e-001
  +7.71296181060553837083e-002+j1.23614071389843108162e-001
  +7.92629715764101433484e-002+j1.20963153730459918589e-001
  +8.13983138474168727017e-002+j1.19184761312177159298e-001
  +8.35582239346180088990e-002+j1.17438064496561508920e-001
  +8.53590432786883596128e-002+j1.14197846993877055732e-001
</dep>
<dep _net1.v acfrequency>
  +8.41986254630706643098e-002+j1.44102184415681899843e-001
  +8.95927988024500798758e-002+j1.47910077049916294234e-001
  +9.56405045744506132621e-002+j1.51733050467113328441e-001
  +1.02778920480195823384e-001+j1.55186346034662692173e-001
  +1.09986939133822778092e-001+j1.58448754566451577297e-001
  +1.16799420681520271792e-001+j1.61575196383543728818e-001
  +1.23502955918533302571e-001+j1.64120215856637108320e-001
  +1.29869960193409600402e-001+j1.66085400115883352612e-001
  +1.36258019197359192543e-001+j1.67808461743568615443e-001
  +1.43518583285771245128e-001+j1.69649028289861864005e-001
</dep>
<dep S[1,1] frequency>
  -5.26516333778885736727e-001+j8.10346133471345764221e-001
  -4.96182667939186194950e-001+j8.31759487372572881014e-001
  -4.62173919157309098793e-001+j8.53257646748523002067e-001
  -4.22031656555348078097e-001+j8.72676954805835958240e-001
  -3.81497988938546972459e-001+j8.91022826176551929755e-001
  -3.43188589924892484273e-001+j9.08604100522132362983e-001
  -3.05491841038481815040e-001+j9.22915796753497108540e-001
  -2.69687544824210367889e-001+j9.33966839959346151190e-001
  -2.33764849167466010060e-001+j9.43656327550332019172e-001
  -1.92935696856382232767e-001+j9.54006593857770868183e-001
</dep>
<indep Pr1.V 1>
  +0.00000000000000000000e+000
</indep>
<indep _net4.V 1>
  +0.00000000000000000000e+000
</indep>
<indep _net0.V 1>
  +0.00000000000000000000e+000
</indep>
<indep _net2.V 1>
  +0.00000000000000000000e+000
</indep>
<indep _net3.V 1>
  +0.00000000000000000000e+000
</indep>
<indep _net5.V 1>
  +0.00000000000000000000e+000
</indep>
<indep _net1.V 1>
  +0.00000000000000000000e+000
</indep>
