<Qucs Dataset 0.0.19>
<indep frequency 50>
  +1.00000000000000000000e+009
  +1.10204081632653069496e+009
  +1.20408163265306115150e+009
  +1.30612244897959184647e+009
  +1.40816326530612254143e+009
  +1.51020408163265299797e+009
  +1.61224489795918369293e+009
  +1.71428571428571438789e+009
  +1.81632653061224484444e+009
  +1.91836734693877553940e+009
  +2.02040816326530623436e+009
  +2.12244897959183669090e+009
  +2.22448979591836738586e+009
  +2.32653061224489784241e+009
  +2.42857142857142877579e+009
  +2.53061224489795923233e+009
  +2.63265306122448968887e+009
  +2.73469387755102062225e+009
  +2.83673469387755107880e+009
  +2.93877551020408153534e+009
  +3.04081632653061246872e+009
  +3.14285714285714292526e+009
  +3.24489795918367338181e+009
  +3.34693877551020431519e+009
  +3.44897959183673477173e+009
  +3.55102040816326522827e+009
  +3.65306122448979568481e+009
  +3.75510204081632661819e+009
  +3.85714285714285707474e+009
  +3.95918367346938753128e+009
  +4.06122448979591846466e+009
  +4.16326530612244892120e+009
  +4.26530612244897937775e+009
  +4.36734693877550983429e+009
  +4.46938775510204124451e+009
  +4.57142857142857170105e+009
  +4.67346938775510215759e+009
  +4.77551020408163261414e+009
  +4.87755102040816307068e+009
  +4.97959183673469352722e+009
  +5.08163265306122493744e+009
  +5.18367346938775539398e+009
  +5.28571428571428585052e+009
  +5.38775510204081630707e+009
  +5.48979591836734676361e+009
  +5.59183673469387722015e+009
  +5.69387755102040863037e+009
  +5.79591836734693908691e+009
  +5.89795918367346954346e+009
  +6.00000000000000000000e+009
</indep>
<dep SWR frequency>
  +3.75387448057321819306e+002
  +3.16653383615473842383e+002
  +2.54774593367681944756e+002
  +2.83550782905125572597e+002
  +2.48036070575648523118e+002
  +2.17378726458753391171e+002
  +2.15725365764620818254e+002
  +1.80410780366665022711e+002
  +1.76636800834851271702e+002
  +1.74069869334705515485e+002
  +1.88831907505032319250e+002
  +2.25503080440621971547e+002
  +2.04422210632193269930e+002
  +1.79218406088307290247e+002
  +1.81564322517899881859e+002
  +1.47314267774041695702e+002
  +1.61551552093194715098e+002
  +1.69814283218802586362e+002
  +1.91515681551568860641e+002
  +2.44876950297363663367e+002
  +1.49153402687647911762e+002
  +1.22096215134337626296e+002
  +1.24346403980105421283e+002
  +1.01822562202436301959e+002
  +1.06567248962240483934e+002
  +1.25225663382156284342e+002
  +1.20131446374998688498e+002
  +1.04734652385801837227e+002
  +8.55325554695321841336e+001
  +7.08297250646209306524e+001
  +6.71376283271503382366e+001
  +6.32708030478821896736e+001
  +6.31859416533125894944e+001
  +6.15758244380026340536e+001
  +5.47949686115006215914e+001
  +4.79177085303538845551e+001
  +4.41749064440423140354e+001
  +4.29801704453131989681e+001
  +4.45037413024998045330e+001
  +4.63544027230876523049e+001
  +4.62395938841026392652e+001
  +4.81253627635921361616e+001
  +4.55465286395058512880e+001
  +4.38235256181070838011e+001
  +4.68134102259485942454e+001
  +4.71277398508550646739e+001
  +5.22654245740751761673e+001
  +5.92523943143221245577e+001
  +5.97500375703447801357e+001
  +6.02107153222473883147e+001
</dep>
<dep ZofS11 frequency>
  +3.91856486884639876322e+000-j2.66522363214776305540e+002
  +3.97209723254874536025e+000-j2.45710706075135107085e+002
  +4.29413042818314849569e+000-j2.28438547230018656364e+002
  +3.39406820097084693799e+000-j2.13561732470654447980e+002
  +3.46414705852665649743e+000-j2.01122771497888976455e+002
  +3.54458454122609412096e+000-j1.89773851970977375458e+002
  +3.24161181789538188625e+000-j1.80153096102531407041e+002
  +3.54620230938388125708e+000-j1.71688856834647111782e+002
  +3.36404435348201857892e+000-j1.64925246938946202135e+002
  +3.18715455869870245564e+000-j1.58839971059964284450e+002
  +2.76695416490115819741e+000-j1.53679986535569412354e+002
  +2.21978019739795673360e+000-j1.50079740073732239125e+002
  +2.31924727137301145419e+000-j1.45603815443953493514e+002
  +2.50785384610137596084e+000-j1.41304949606391232919e+002
  +2.37610140629858879180e+000-j1.38078856408301248848e+002
  +2.74975012410923014272e+000-j1.33218780481142090366e+002
  +2.43017290134772734334e+000-j1.30861593290279273560e+002
  +2.20903604039161782779e+000-j1.27483583951012903412e+002
  +1.85858950981466897190e+000-j1.23670864440859119782e+002
  +1.40732188681532388586e+000-j1.21364498039911907767e+002
  +2.19797648066796824651e+000-j1.17846040547632028961e+002
  +2.52538829896834027267e+000-j1.13629548296068477953e+002
  +2.38061756181661410281e+000-j1.10888915431112550891e+002
  +2.69915995996248003763e+000-j1.05999099546677385320e+002
  +2.41113771682766930837e+000-j1.01699229877522625998e+002
  +1.96409547818046625878e+000-j9.89680984531570402396e+001
  +1.90743992756999447558e+000-j9.46273292371472933837e+001
  +2.01080517524304935861e+000-j8.95933349472395832436e+001
  +2.32453790374003599339e+000-j8.62388470739899020145e+001
  +2.57525479715113370105e+000-j8.13352042164322028839e+001
  +2.51020878626996424288e+000-j7.69548018492469765306e+001
  +2.45552935489049506401e+000-j7.25539563143120886934e+001
  +2.25747836598400031249e+000-j6.80348071530059712586e+001
  +2.13703786155752872844e+000-j6.38487413180259082424e+001
  +2.21758756576778459646e+000-j5.97723840119344487221e+001
  +2.35576300017084827587e+000-j5.60450421996149046322e+001
  +2.39053118335688852270e+000-j5.26978717445733337854e+001
  +2.29188612295307914124e+000-j4.92208927355313718977e+001
  +2.07690905088611943441e+000-j4.60383645861007764211e+001
  +1.89505249442511680691e+000-j4.34816535173126936797e+001
  +1.79590878066973980154e+000-j4.06303003329552296918e+001
  +1.65557975659688616510e+000-j3.85064662632393179820e+001
  +1.67755350519577417501e+000-j3.63230551419757006215e+001
  +1.68187370946009639994e+000-j3.44147061145612127575e+001
  +1.53639728050762380818e+000-j3.30980402953474239780e+001
  +1.47100708313209693756e+000-j3.10750503503386923398e+001
  +1.29744299263670970213e+000-j2.98350178657659981241e+001
  +1.13013291498740020558e+000-j2.91175293430007933182e+001
  +1.09652626120750462668e+000-j2.78494073541983198083e+001
  +1.07431567774712366514e+000-j2.70925035342136659722e+001
</dep>
<dep dBS11 frequency>
  -4.62770411179174862015e-002
  -5.48607339308980826442e-002
  -6.81852466400536955105e-002
  -6.12653970482768192585e-002
  -7.00376899182893059015e-002
  -7.99153721425081287055e-002
  -8.05278676658036374203e-002
  -9.62911260245558203730e-002
  -9.83485026347714619277e-002
  -9.97988362545360052636e-002
  -9.19968553156879365051e-002
  -7.70361678245334857706e-002
  -8.49805791339996313694e-002
  -9.69317825268709298836e-002
  -9.56793421418082601360e-002
  -1.17925075250669558757e-001
  -1.07532245448999488890e-001
  -1.02299875817676244605e-001
  -9.07076486548692717538e-002
  -7.09412454813151682753e-002
  -1.16470957146521725267e-001
  -1.42282606450248899632e-001
  -1.39707729686754322795e-001
  -1.70613834968392774627e-001
  -1.63017149838444175280e-001
  -1.38726744059885748195e-001
  -1.44609767567324243309e-001
  -1.65869717403377830989e-001
  -2.03110625685305218324e-001
  -2.45277440046815620178e-001
  -2.58767915228583167409e-001
  -2.74585198055455670385e-001
  -2.74954039152140172764e-001
  -2.82144931064147674871e-001
  -3.17067583023413979149e-001
  -3.62586241834928491024e-001
  -3.93317133140263064384e-001
  -4.04254211842486554929e-001
  -3.90409959584583687864e-001
  -3.74818224340839556419e-001
  -3.75749154913966210145e-001
  -3.61021281250562320331e-001
  -3.81468619916406348480e-001
  -3.96471874864440909647e-001
  -3.71141991539344573425e-001
  -3.68665826294598431012e-001
  -3.32416691905007222196e-001
  -2.93210579978836205495e-001
  -2.90768043664637487744e-001
  -2.88542939691539990221e-001
</dep>
<dep S[1,1] frequency>
  +9.27079311196906785675e-001-j3.60450882814186801539e-001
  +9.14718156391853831622e-001-j3.88249912136262087525e-001
  +9.01519791935705194774e-001-j4.14348208244621485363e-001
  +8.89817220517594043017e-001-j4.40701112830111041418e-001
  +8.76551263208930064863e-001-j4.64392559263202220343e-001
  +8.62286475945586938785e-001-j4.88087192238495948260e-001
  +8.49130341179950787200e-001-j5.10496117911083402419e-001
  +8.34449131323012349704e-001-j5.30817091880924518676e-001
  +8.22404350367203162975e-001-j5.48871561850810318894e-001
  +8.10445361733159286288e-001-j5.66092574539931003841e-001
  +8.00139479644547124693e-001-j5.82079495838101812488e-001
  +7.93195818560232135397e-001-j5.94355580956425821881e-001
  +7.81436462194056935537e-001-j6.08259611542361078307e-001
  +7.68933831826631664086e-001-j6.21826847945033733822e-001
  +7.59842094736093098817e-001-j6.33127094722357619538e-001
  +7.43057396993457519585e-001-j6.48905068661874473435e-001
  +7.36182861552168610331e-001-j6.58466855326314992602e-001
  +7.24894850657884282086e-001-j6.71749433840887366642e-001
  +7.11637134566248663603e-001-j6.87679421633436760430e-001
  +7.04080349347998124543e-001-j6.98619156636855809239e-001
  +6.85787519758948360682e-001-j7.09389504797622527654e-001
  +6.64815516963335517708e-001-j7.25113371585593413648e-001
  +6.51726485115240117274e-001-j7.37289366498509179948e-001
  +6.23926923377439712759e-001-j7.56433451994789285422e-001
  +5.99598959360681971198e-001-j7.76943208048375133501e-001
  +5.84119277930688074463e-001-j7.92064672112077539090e-001
  +5.54393377636353434923e-001-j8.12341441294269994700e-001
  +5.15371120704038676585e-001-j8.34817253099091383106e-001
  +4.85753725656026869029e-001-j8.47556568834008872138e-001
  +4.39470692630004544643e-001-j8.67152538967900232691e-001
  +3.94999316978247416721e-001-j8.86641069550873073268e-001
  +3.45586826237128386108e-001-j9.05152715159380227838e-001
  +2.89939300109581188369e-001-j9.24438841951830791999e-001
  +2.32707050767306716788e-001-j9.39652328557506688611e-001
  +1.71072345242531398402e-001-j9.48856207419989772234e-001
  +1.09924752340939402284e-001-j9.52794916115002443746e-001
  +5.12113102667341724139e-002-j9.54354604828836938779e-001
  -1.39711175854740354829e-002-j9.54422709065270158391e-001
  -7.78542219885992869965e-002-j9.52872329540356610700e-001
  -1.32152603311757932403e-001-j9.48604247605564721013e-001
  -1.95206316185127654039e-001-j9.37556512273610254127e-001
  -2.44398857639572614220e-001-j9.27632655668573002927e-001
  -2.95198245743558462806e-001-j9.10367347308796315275e-001
  -3.40510288727110366214e-001-j8.92639223752536681289e-001
  -3.73761560537592241182e-001-j8.82266085450060133510e-001
  -4.23847823695614800421e-001-j8.59632350715391235774e-001
  -4.56669828362196383864e-001-j8.47211241307811002699e-001
  -4.76844189224572723163e-001-j8.41031531959539280230e-001
  -5.08854684413611701999e-001-j8.22378972099071181567e-001
  -5.27986494922676463659e-001-j8.10524408689431763442e-001
</dep>
<dep S[2,2] frequency>
  -1.00000000000000000000e+000
  -1.00000000000000000000e+000
  -1.00000000000000000000e+000
  -1.00000000000000000000e+000
  -1.00000000000000000000e+000
  -1.00000000000000000000e+000
  -1.00000000000000000000e+000
  -1.00000000000000000000e+000
  -1.00000000000000000000e+000
  -1.00000000000000000000e+000
  -1.00000000000000000000e+000
  -1.00000000000000000000e+000
  -1.00000000000000000000e+000
  -1.00000000000000000000e+000
  -1.00000000000000000000e+000
  -1.00000000000000000000e+000
  -1.00000000000000000000e+000
  -1.00000000000000000000e+000
  -1.00000000000000000000e+000
  -1.00000000000000000000e+000
  -1.00000000000000000000e+000
  -1.00000000000000000000e+000
  -1.00000000000000000000e+000
  -1.00000000000000000000e+000
  -1.00000000000000000000e+000
  -1.00000000000000000000e+000
  -1.00000000000000000000e+000
  -1.00000000000000000000e+000
  -1.00000000000000000000e+000
  -1.00000000000000000000e+000
  -1.00000000000000000000e+000
  -1.00000000000000000000e+000
  -1.00000000000000000000e+000
  -1.00000000000000000000e+000
  -1.00000000000000000000e+000
  -1.00000000000000000000e+000
  -1.00000000000000000000e+000
  -1.00000000000000000000e+000
  -1.00000000000000000000e+000
  -1.00000000000000000000e+000
  -1.00000000000000000000e+000
  -1.00000000000000000000e+000
  -1.00000000000000000000e+000
  -1.00000000000000000000e+000
  -1.00000000000000000000e+000
  -1.00000000000000000000e+000
  -1.00000000000000000000e+000
  -1.00000000000000000000e+000
  -1.00000000000000000000e+000
  -1.00000000000000000000e+000
</dep>
