<Qucs Dataset 0.0.19>
<indep acfrequency 10>
  +5.60000000000000000000e+009
  +5.62222222222222232819e+009
  +5.64444444444444465637e+009
  +5.66666666666666698456e+009
  +5.68888888888888931274e+009
  +5.71111111111111068726e+009
  +5.73333333333333301544e+009
  +5.75555555555555534363e+009
  +5.77777777777777767181e+009
  +5.80000000000000000000e+009
</indep>
<indep frequency 10>
  +1.00000000000000000000e+009
  +1.53333333333333325386e+009
  +2.06666666666666674614e+009
  +2.60000000000000000000e+009
  +3.13333333333333349228e+009
  +3.66666666666666650772e+009
  +4.20000000000000000000e+009
  +4.73333333333333301544e+009
  +5.26666666666666698456e+009
  +5.80000000000000000000e+009
</indep>
<dep SWR frequency>
  +4.05315971284303168432e+003
  +3.15655526961964096699e+003
  +2.52570573468747534207e+003
  +1.98535610531291695224e+003
  +1.49854962483313875055e+003
  +1.07745753311490602755e+003
  +7.40146810679332133986e+002
  +4.89895239927469958729e+002
  +3.15181579200785563444e+002
  +1.98315022633954725961e+002
</dep>
<dep ZofS11 frequency>
  +1.24243225079302133107e-002+j4.22944101856836063291e+000
  +1.61116810503853964687e-002+j6.54756303711293607961e+000
  +2.04304886207895448902e-002+j8.94818979716496620824e+000
  +2.65092920757277993038e-002+j1.14681824358212995918e+001
  +3.60392413074032344489e-002+j1.41537797307886226150e+001
  +5.18117034558773295605e-002+j1.70659083994967843978e+001
  +7.86772497220328825840e-002+j2.02887874848523601656e+001
  +1.25469824460440276814e-001+j2.39447395264508315904e+001
  +2.09178242390603258416e-001+j2.82213725177529148880e+001
  +3.64802827362494641594e-001+j3.34253338465618980990e+001
</dep>
<dep dBS11 frequency>
  -4.28598448108676033375e-003
  -5.50339796818596817957e-003
  -6.87799055340531338698e-003
  -8.74995709773431114276e-003
  -1.15923967860896877380e-002
  -1.61229410256834952697e-002
  -2.34707352592616914910e-002
  -3.54602412681134168682e-002
  -5.51169189884678778490e-002
  -8.75976327103493296322e-002
</dep>
<dep outV acfrequency>
  +0.00000000000000000000e+000
  +0.00000000000000000000e+000
  +0.00000000000000000000e+000
  +0.00000000000000000000e+000
  +0.00000000000000000000e+000
  +0.00000000000000000000e+000
  +0.00000000000000000000e+000
  +0.00000000000000000000e+000
  +0.00000000000000000000e+000
  +0.00000000000000000000e+000
</dep>
<dep Pr1.v acfrequency>
  +0.00000000000000000000e+000
  +0.00000000000000000000e+000
  +0.00000000000000000000e+000
  +0.00000000000000000000e+000
  +0.00000000000000000000e+000
  +0.00000000000000000000e+000
  +0.00000000000000000000e+000
  +0.00000000000000000000e+000
  +0.00000000000000000000e+000
  +0.00000000000000000000e+000
</dep>
<dep _net0.v acfrequency>
  +0.00000000000000000000e+000
  +0.00000000000000000000e+000
  +0.00000000000000000000e+000
  +0.00000000000000000000e+000
  +0.00000000000000000000e+000
  +0.00000000000000000000e+000
  +0.00000000000000000000e+000
  +0.00000000000000000000e+000
  +0.00000000000000000000e+000
  +0.00000000000000000000e+000
</dep>
<dep _net6.v acfrequency>
  +1.81387345194334720366e-001+j2.79409969498456922654e-001
  +1.83679678641992777388e-001+j2.80841141722300902117e-001
  +1.86000247082878961136e-001+j2.82272492503818639431e-001
  +1.88349448469910918380e-001+j2.83703851325654177185e-001
  +1.90727686816090508115e-001+j2.85135040922285309950e-001
  +1.93135372247866698991e-001+j2.86565877088846510112e-001
  +1.95572921093154800110e-001+j2.87996168406025876418e-001
  +1.98040755932373302439e-001+j2.89425716037487679166e-001
  +2.00539305673107848271e-001+j2.90854313463133395956e-001
  +2.03069005609407049473e-001+j2.92281746233629902143e-001
</dep>
<dep _net5.v acfrequency>
  +1.57016921452780233714e-001+j2.44616738945618861223e-001
  +1.58810197068114389296e-001+j2.45600928090289549743e-001
  +1.60622405764343723078e-001+j2.46581686982529801888e-001
  +1.62453778296172912654e-001+j2.47558859022804722549e-001
  +1.64304548434056396644e-001+j2.48532282641253710054e-001
  +1.66174952966873679117e-001+j2.49501791177278109402e-001
  +1.68065231734451980827e-001+j2.50467212688228468842e-001
  +1.69975627626957392913e-001+j2.51428369822884079099e-001
  +1.71906386604452343647e-001+j2.52385079641349818758e-001
  +1.73857757702372217601e-001+j2.53337153455431174365e-001
</dep>
<dep _net7.v acfrequency>
  +1.77593841198188356900e-001+j2.78073721508098392619e-001
  +1.79467251723098242255e-001+j2.78968060980681720196e-001
  +1.81357733763883977041e-001+j2.79855640639696701122e-001
  +1.83265461929380535366e-001+j2.80736278682183038047e-001
  +1.85190612602519233398e-001+j2.81609788392611803953e-001
  +1.87133363912978439858e-001+j2.82475978042074360452e-001
  +1.89093895742317913422e-001+j2.83334650707073587572e-001
  +1.91072389691714472626e-001+j2.84185604164050198417e-001
  +1.93069029071802233943e-001+j2.85028630724202980407e-001
  +1.95083998876815711832e-001+j2.85863517093972507865e-001
</dep>
<dep _net8.v acfrequency>
  +1.78488237945864602896e-001+j2.80521112902157865321e-001
  +1.80310472528965981542e-001+j2.81342384851935689571e-001
  +1.82147956941546146359e-001+j2.82155531207602283672e-001
  +1.84000823049006057008e-001+j2.82960361151762318510e-001
  +1.85869203571330687819e-001+j2.83756679176368653561e-001
  +1.87753232036239781078e-001+j2.84544284997712448870e-001
  +1.89653042764896556660e-001+j2.85322973391344325567e-001
  +1.91568770819372735659e-001+j2.86092534103719264849e-001
  +1.93500551972516060539e-001+j2.86852751705164277229e-001
  +1.95448522661002793699e-001+j2.87603405468459139005e-001
</dep>
<dep _net1.v acfrequency>
  +1.79542410472680158406e-001+j2.82205593093915241276e-001
  +1.81371930792036478719e-001+j2.83026790798655614179e-001
  +1.83216695089433084798e-001+j2.83839752039300452502e-001
  +1.85076834145364022000e-001+j2.84644284816192028043e-001
  +1.86952479565621249025e-001+j2.85440192427812988729e-001
  +1.88843763733655856107e-001+j2.86227273385962655006e-001
  +1.90750819795433707027e-001+j2.87005321250583866899e-001
  +1.92673781606069766115e-001+j2.87774124541629205964e-001
  +1.94612783698809105326e-001+j2.88533466592050147348e-001
  +1.96567961237186339396e-001+j2.89283125426529952318e-001
</dep>
<dep S[1,1] frequency>
  -9.85304818528879744477e-001+j1.67892873572788148273e-001
  -9.65669692139994428892e-001+j2.57324005942372813216e-001
  -9.37189406754917353481e-001+j3.46545167951799515382e-001
  -8.99136856506300929937e-001+j4.35362135979700748400e-001
  -8.50489923969721006713e-001+j5.23451239847314009346e-001
  -7.89847344404112083893e-001+j6.10275028797291563265e-001
  -7.15311734360752460304e-001+j6.94938388152254948871e-001
  -6.24331772784192162717e-001+j7.75936890767572107208e-001
  -5.13506527346408003787e-001+j8.50705648080725573834e-001
  -3.78397527476080575148e-001+j9.14793565003940267744e-001
</dep>
<indep Pr1.V 1>
  +0.00000000000000000000e+000
</indep>
<indep _net6.V 1>
  +0.00000000000000000000e+000
</indep>
<indep _net1.V 1>
  +0.00000000000000000000e+000
</indep>
<indep _net8.V 1>
  +0.00000000000000000000e+000
</indep>
<indep _net5.V 1>
  +0.00000000000000000000e+000
</indep>
<indep _net7.V 1>
  +0.00000000000000000000e+000
</indep>
<indep _net0.V 1>
  +0.00000000000000000000e+000
</indep>
