<Qucs Dataset 0.0.19>
<indep frequency 51>
  +5.00000000000000000000e+009
  +5.01826543727018165588e+009
  +5.03659759978009700775e+009
  +5.05499673128288364410e+009
  +5.07346307642212677002e+009
  +5.09199688073512077332e+009
  +5.11059839065612697601e+009
  +5.12926785351965045929e+009
  +5.14800551756373500824e+009
  +5.16681163193325710297e+009
  +5.18568644668324089050e+009
  +5.20463021278218555450e+009
  +5.22364318211539840698e+009
  +5.24272560748834705353e+009
  +5.26187774263001632690e+009
  +5.28109984219629192352e+009
  +5.30039216177333164215e+009
  +5.31975495788097763062e+009
  +5.33918848797616100311e+009
  +5.35869301045632171631e+009
  +5.37826878466285037994e+009
  +5.39791607088453865051e+009
  +5.41763513036102676392e+009
  +5.43742622528629589081e+009
  +5.45728961881213665009e+009
  +5.47722557505166149139e+009
  +5.49723435908280944824e+009
  +5.51731623695187282562e+009
  +5.53747147567703151703e+009
  +5.55770034325191211700e+009
  +5.57800310864913845062e+009
  +5.59838004182392024994e+009
  +5.61883141371763420105e+009
  +5.63935749626143169403e+009
  +5.65995856237984943390e+009
  +5.68063488599444484711e+009
  +5.70138674202743148804e+009
  +5.72221440640534114838e+009
  +5.74311815606268692017e+009
  +5.76409826894564628601e+009
  +5.78515502401576423645e+009
  +5.80628870125365161896e+009
  +5.82749958166271400452e+009
  +5.84878794727288722992e+009
  +5.87015408114438819885e+009
  +5.89159826737147712708e+009
  +5.91312079108623409271e+009
  +5.93472193846235275269e+009
  +5.95640199671894264221e+009
  +5.97816125412435340881e+009
  +6.00000000000000190735e+009
</indep>
<dep ZL frequency>
  +3.38060726979156730522e-007
  +1.33525469595641360705e-008
  +3.38208465744061321782e-007
  +0.00000000000000000000e+000
  +0.00000000000000000000e+000
  +4.81223776392796047535e-009
  +0.00000000000000000000e+000
  +1.89616375069741184740e-009
  +0.00000000000000000000e+000
  +3.38035625413379752237e-007
  +0.00000000000000000000e+000
  +5.88779347868536204483e-009
  +0.00000000000000000000e+000
  +9.82288157195565396903e-009
  +0.00000000000000000000e+000
  +1.14742377908364538753e-007
  +3.38416704923544841543e-007
  +0.00000000000000000000e+000
  +0.00000000000000000000e+000
  +3.38759816407998636364e-007
  +0.00000000000000000000e+000
  +1.60173811110148208910e-008
  +2.78769602663743480841e-008
  +0.00000000000000000000e+000
  +3.39582437422977681265e-007
  +0.00000000000000000000e+000
  +5.82269478935220251678e-009
  +0.00000000000000000000e+000
  +0.00000000000000000000e+000
  +3.40729404959065352737e-007
  +3.40998747676118960563e-007
  +4.64766355929934323144e-008
  +4.85758508585629875411e-008
  +1.45603374328830144872e-007
  +2.41980536982752334003e-007
  +0.00000000000000000000e+000
  +2.48041550212334749300e-007
  +3.43267314794850556173e-007
  +1.41170846533062885228e-007
  +4.48653966511894128745e-008
  +1.61709948215723026085e-008
  +3.44871587039555356769e-007
  +6.99189870135582162759e-008
  +7.20883166468785968028e-008
  +5.25126135558986516016e-008
  +0.00000000000000000000e+000
  +0.00000000000000000000e+000
  +5.71554011525200777928e-008
  +4.75548317771092925856e-008
  +2.46620648436631656045e-007
  +3.44002012889618590171e-007
</dep>
<dep A[1,1] frequency>
  +1.00000000000000022204e+000+j1.12289625008769219286e-015
  +1.00000000000000000000e+000+j4.45356006055076249153e-016
  +1.00000000000000000000e+000-j2.59097608121680864166e-016
  +1.00000000000000000000e+000+j6.19699143954316698361e-016
  +9.99999999999999888978e-001-j5.78008174782756218637e-016
  +1.00000000000000044409e+000+j3.71297518436860590442e-015
  +1.00000000000000155431e+000+j6.14300793522513930538e-015
  +1.00000000000000244249e+000+j5.24874805419692727080e-015
  +1.00000000000002020606e+000-j9.27795393933570743020e-016
  +9.99999999999997224442e-001+j6.35717287839997727982e-015
  +1.00000000000000022204e+000-j1.08812003935516301942e-015
  +9.99999999999999777955e-001+j9.93382797553765673804e-016
  +1.00000000000000022204e+000-j1.03347003983711619854e-015
  +1.00000000000000000000e+000-j6.03258680996490876341e-016
  +1.00000000000000022204e+000-j1.32092068900556534405e-015
  +1.00000000000000000000e+000-j1.48683188835257857961e-015
  +1.00000000000000022204e+000-j1.27253949278998295996e-015
  +1.00000000000000000000e+000-j1.07211771469906590636e-015
  +1.00000000000000000000e+000+j3.00846979250655749686e-016
  +1.00000000000000022204e+000-j7.85024749660687374127e-016
  +1.00000000000000000000e+000+j6.24640196807561630533e-017
  +1.00000000000000000000e+000-j9.71302928967218462130e-016
  +1.00000000000000000000e+000-j2.66678841329388681827e-016
  +1.00000000000000000000e+000-j5.21629121076226680990e-016
  +1.00000000000000000000e+000
  +1.00000000000000022204e+000-j7.85674264543566880994e-016
  +1.00000000000000000000e+000-j4.11329327857702462481e-016
  +1.00000000000000000000e+000+j1.55521813129174607277e-016
  +1.00000000000000000000e+000+j1.47407097170011686530e-016
  +1.00000000000000000000e+000
  +1.00000000000000000000e+000+j3.33440523596958869317e-017
  +1.00000000000000000000e+000+j1.55358022240023512566e-020
  +1.00000000000000000000e+000-j3.04168287026170236813e-016
  +9.99999999999999777955e-001-j2.50058007978484053886e-016
  +1.00000000000000022204e+000-j3.91109352084888550247e-016
  +1.00000000000000000000e+000+j1.07330887572881489499e-016
  +9.99999999999999888978e-001-j4.87336103889366239942e-016
  +1.00000000000000000000e+000+j9.94059769395112148828e-017
  +9.99999999999999777955e-001-j7.40057656882198101470e-017
  +1.00000000000000000000e+000+j4.62462970626778555837e-017
  +1.00000000000000000000e+000-j1.78712001257837045683e-016
  +1.00000000000000000000e+000-j4.32034763395908722916e-017
  +1.00000000000000000000e+000+j8.36084902411197902736e-017
  +1.00000000000000000000e+000
  +1.00000000000000000000e+000-j1.57057661784167063740e-016
  +1.00000000000000000000e+000-j1.52364295819016632387e-016
  +1.00000000000000000000e+000-j1.47913520270611662074e-016
  +1.00000000000000000000e+000-j2.15529996203319870209e-016
  +1.00000000000000000000e+000-j2.82198105092307105658e-016
  +1.00000000000000000000e+000-j6.78863971903760759861e-017
  +9.99999999999999888978e-001-j1.38644108612591247991e-016
</dep>
<dep A[1,2] frequency>
  +1.35319165569954581989e-014+j4.90829495647755586572e-014
  -8.11541728054874834687e-015-j5.70055687750497598916e-014
  +9.39633002354857972888e-015+j6.63289876791503012266e-014
  -0.00000000000000000000e+000
  -0.00000000000000000000e+000
  -1.55594774285579904896e-014-j1.31770136978316874147e-013
  -0.00000000000000000000e+000
  -1.54984802353114026308e-013-j3.35919875468603345331e-013
  +0.00000000000000000000e+000
  +1.44828034197297684737e-013-j3.25487251374078856922e-013
  +0.00000000000000000000e+000
  -2.30951187857165774718e-014+j1.27152998086882006247e-013
  +0.00000000000000000000e+000
  -1.13386085379238570625e-014+j7.72171111675508321717e-014
  +0.00000000000000000000e+000
  +1.38001330762936016339e-014+j2.00687043465936210011e-015
  +7.21407817032875088517e-015-j4.82622385413682430970e-014
  +0.00000000000000000000e+000
  +0.00000000000000000000e+000
  +5.95864587730627652264e-015-j3.49506671153279919264e-014
  +0.00000000000000000000e+000
  +1.80909530680995004529e-015+j3.08555781253733622432e-014
  -5.41808169483350811141e-015+j2.73079133521294016502e-014
  +0.00000000000000000000e+000
  +5.21359400546583858398e-015-j2.37959767003024764708e-014
  +0.00000000000000000000e+000
  +1.91599192567646000762e-016+j2.23284156373171022541e-014
  +0.00000000000000000000e+000
  +0.00000000000000000000e+000
  +4.93347207940737346712e-015-j1.79276849129494887646e-014
  +4.89906149260659926927e-015-j1.70721548081642941090e-014
  -4.86905042408845508049e-015+j1.62904693528354894712e-014
  -4.84272095856254293889e-015+j1.55734162957399180181e-014
  +7.45662682783662037623e-015+j2.40974788218972931744e-015
  +2.39945315966181985908e-015-j7.15171386669510401725e-015
  +0.00000000000000000000e+000
  +8.98870539054039902516e-015-j4.22453716186938688937e-015
  +4.74944074188863238974e-015-j1.27239650482574355050e-014
  +6.13347057874571406405e-015+j2.36808357161680726831e-015
  -2.36208133755124960304e-015+j5.91952602402276551472e-015
  +1.00551304155762152468e-015+j1.37942035798481530895e-014
  +4.70335910777256932297e-015-j1.10600899429352633066e-014
  -4.69431327334309997659e-015+j1.07045001542212975220e-014
  -4.68603578719064689978e-015+j1.03689228662158539112e-014
  -2.33922116471206415522e-015+j5.02584517709334603969e-015
  +0.00000000000000000000e+000
  +0.00000000000000000000e+000
  -2.32954071349328341516e-015+j4.59797325233749056445e-015
  +2.14255080446992721198e-015+j6.79613214155686734881e-015
  +2.32424081671053870007e-015-j4.34685190646652286600e-015
  +1.31038751920196656773e-014-j3.81638607806372472787e-015
</dep>
<dep A[2,1] frequency>
  +2.40597888315815106042e-002+j4.39745663780057138847e-001
  +3.13839653137410606876e-002+j5.01426285729213438991e-001
  +4.26509929544991867045e-002+j5.83435945694694368946e-001
  +6.12897489898477365600e-002+j6.97719208448619010454e-001
  +9.54430142965113775810e-002+j8.67705800189573883685e-001
  +1.68489597249932065992e-001+j1.14603178258224458475e+000
  +3.71316704835363220472e-001+j1.67670595442508685302e+000
  +1.32326073852651227014e+000+j2.95478247263036220005e+000
  +7.88274675012338388314e+000-j3.60649138522830037257e-001
  +1.23392086102295173156e+000-j2.86301614062919629333e+000
  +3.55858393558893815189e-001-j1.63348566792476046494e+000
  +1.63146813198106505061e-001-j1.11844959922484998849e+000
  +9.28347099447047047205e-002-j8.46242779328910454950e-001
  +5.97354554419800981568e-002-j6.79208892735953306818e-001
  +4.16000611891598065517e-002-j5.66561706932518283075e-001
  +3.06104761071310099707e-002-j4.85549017031711827030e-001
  +2.34557026556917770643e-002-j4.24519139669867151543e-001
  +1.85405124824305836406e-002-j3.76903732430206639403e-001
  +1.50199679929072082291e-002-j3.38723585912198144054e-001
  +1.24128034231822011180e-002-j3.07429319134651157785e-001
  +1.04286486689850188547e-002-j2.81312935758316728929e-001
  +8.88391835901868737180e-003-j2.59187555855035722807e-001
  +7.65795058967791170829e-003-j2.40202946087726104674e-001
  +6.66880446720081749429e-003-j2.23734163362332733049e-001
  +5.85925785210352281784e-003-j2.09311624610154761728e-001
  +5.18837364296234962446e-003-j1.96575684724055316233e-001
  +4.62624087085767438099e-003-j1.85246260766650516771e-001
  +4.15059500230360867157e-003-j1.75101994914133668457e-001
  +3.74458757499192490883e-003-j1.65965636971657781729e-001
  +3.39527933293318553987e-003-j1.57693584167138634022e-001
  +3.09260061048481941712e-003-j1.50168261782148704242e-001
  +2.82862046010336166610e-003-j1.43292483802969522477e-001
  +2.59702403211241458422e-003-j1.36985218410898224040e-001
  +2.39273306361916871313e-003-j1.31178366419085312700e-001
  +2.21162638963253669472e-003-j1.25814280879329998264e-001
  +2.05033145062641537770e-003-j1.20843836319643418986e-001
  +1.90606691283814371277e-003-j1.16224910615993520802e-001
  +1.77652256911698595669e-003-j1.11921180175795706435e-001
  +1.65976676060800086392e-003-j1.07901155519246477743e-001
  +1.55417434224457660930e-003-j1.04137403109370627052e-001
  +1.45837014338026952839e-003-j1.00605912783928802545e-001
  +1.37118422881673802764e-003-j9.72855799720457464774e-002
  +1.29161622771163664414e-003-j9.41577791127704150087e-002
  +1.21880668952462187411e-003-j9.12060100713342480905e-002
  +1.15201392865010919346e-003-j8.84156033858570084005e-002
  +1.09059518809167784251e-003-j8.57734732343864020310e-002
  +1.03399122560883256067e-003-j8.32679093467231234982e-002
  +9.81713629815426751246e-004-j8.08884008823696348811e-002
  +9.33334327427811716663e-004-j7.86254866892759224362e-002
  +8.88476859597185772074e-004-j7.64706274460834473095e-002
  +8.46809094550303692421e-004-j7.44160960458583736754e-002
</dep>
<dep A[2,2] frequency>
  +1.00000000000000022204e+000+j1.12289625008769219286e-015
  +1.00000000000000000000e+000+j4.45356006055076249153e-016
  +1.00000000000000000000e+000-j2.59097608121680864166e-016
  +1.00000000000000000000e+000+j6.19699143954316698361e-016
  +9.99999999999999888978e-001-j5.78008174782756218637e-016
  +1.00000000000000044409e+000+j3.71297518436860590442e-015
  +1.00000000000000155431e+000+j6.14300793522513930538e-015
  +1.00000000000000244249e+000+j5.24874805419692727080e-015
  +1.00000000000002020606e+000-j9.27795393933570743020e-016
  +9.99999999999997224442e-001+j6.35717287839997727982e-015
  +1.00000000000000022204e+000-j1.08812003935516301942e-015
  +9.99999999999999777955e-001+j9.93382797553765673804e-016
  +1.00000000000000022204e+000-j1.03347003983711619854e-015
  +1.00000000000000000000e+000-j6.03258680996490876341e-016
  +1.00000000000000022204e+000-j1.32092068900556534405e-015
  +1.00000000000000000000e+000-j1.48683188835257857961e-015
  +1.00000000000000022204e+000-j1.27253949278998295996e-015
  +1.00000000000000000000e+000-j1.07211771469906590636e-015
  +1.00000000000000000000e+000+j3.00846979250655749686e-016
  +1.00000000000000022204e+000-j7.85024749660687374127e-016
  +1.00000000000000000000e+000+j6.24640196807561630533e-017
  +1.00000000000000000000e+000-j9.71302928967218462130e-016
  +1.00000000000000000000e+000-j2.66678841329388681827e-016
  +1.00000000000000000000e+000-j5.21629121076226680990e-016
  +1.00000000000000000000e+000
  +1.00000000000000022204e+000-j7.85674264543566880994e-016
  +1.00000000000000000000e+000-j4.11329327857702462481e-016
  +1.00000000000000000000e+000+j1.55521813129174607277e-016
  +1.00000000000000000000e+000+j1.47407097170011686530e-016
  +1.00000000000000000000e+000
  +1.00000000000000000000e+000+j3.33440523596958869317e-017
  +1.00000000000000000000e+000+j1.55358022240023512566e-020
  +1.00000000000000000000e+000-j3.04168287026170236813e-016
  +9.99999999999999777955e-001-j2.50058007978484053886e-016
  +1.00000000000000022204e+000-j3.91109352084888550247e-016
  +1.00000000000000000000e+000+j1.07330887572881489499e-016
  +9.99999999999999888978e-001-j4.87336103889366239942e-016
  +1.00000000000000000000e+000+j9.94059769395112148828e-017
  +9.99999999999999777955e-001-j7.40057656882198101470e-017
  +1.00000000000000000000e+000+j4.62462970626778555837e-017
  +1.00000000000000000000e+000-j1.78712001257837045683e-016
  +1.00000000000000000000e+000-j4.32034763395908722916e-017
  +1.00000000000000000000e+000+j8.36084902411197902736e-017
  +1.00000000000000000000e+000
  +1.00000000000000000000e+000-j1.57057661784167063740e-016
  +1.00000000000000000000e+000-j1.52364295819016632387e-016
  +1.00000000000000000000e+000-j1.47913520270611662074e-016
  +1.00000000000000000000e+000-j2.15529996203319870209e-016
  +1.00000000000000000000e+000-j2.82198105092307105658e-016
  +1.00000000000000000000e+000-j6.78863971903760759861e-017
  +9.99999999999999888978e-001-j1.38644108612591247991e-016
</dep>
<dep S[2,2] frequency>
  -9.87024545365203342939e-001-j8.90714754965538507703e-002
  -9.88869038694136115453e-001-j7.81878193466024745684e-002
  -9.90478782947844305085e-001-j6.72105691222251028227e-002
  -9.91849083539023901324e-001-j5.61463626674904223157e-002
  -9.92975477198078992913e-001-j4.50020933929242139548e-002
  -9.93853747762538208832e-001-j3.37849010253225626177e-002
  -9.94479941581894344438e-001-j2.25021612533742726425e-002
  -9.94850382451524239968e-001-j1.11614742821921249238e-002
  -9.94961685989117716744e-001+j2.29347682683895225369e-004
  -9.94810773367637235509e-001+j1.16622939936061008337e-002
  -9.94394884320034533332e-001+j2.31291701256342643878e-002
  -9.93711589333023503912e-001+j3.46216132043497409887e-002
  -9.92758800949936182079e-001+j4.61311084456059034009e-002
  -9.91534784106272049087e-001+j5.76490064488104150819e-002
  -9.90038165425791927277e-001+j6.91665412781874017201e-002
  -9.88267941410065242636e-001+j8.06748492597393201953e-002
  -9.86223485460064219765e-001+j9.21649884152425102890e-002
  -9.83904553674786797046e-001+j1.03627958448835766347e-001
  -9.81311289378875351019e-001+j1.15054721196471504419e-001
  -9.78444226338716083191e-001+j1.26436221443901181116e-001
  -9.75304290634539716720e-001+j1.37763408015026178610e-001
  -9.71892801164442765582e-001+j1.49027255029271332720e-001
  -9.68211468765013849591e-001+j1.60218783224370719953e-001
  -9.64262393942207918229e-001+j1.71329081239528530078e-001
  -9.60048063215259261938e-001+j1.82349326753283053071e-001
  -9.55571344085571094951e-001+j1.93270807370790692614e-001
  -9.50835478651664844918e-001+j2.04084941156420368591e-001
  -9.45844075900232006404e-001+j2.14783296709659454748e-001
  -9.40601102712078862567e-001+j2.25357612685315789047e-001
  -9.35110873630147665381e-001+j2.35799816662794592403e-001
  -9.29378039444791914647e-001+j2.46102043273822096436e-001
  -9.23407574658936525225e-001+j2.56256651503362575806e-001
  -9.17204763902673692044e-001+j2.66256241084447176082e-001
  -9.10775187373083605635e-001+j2.76093667914333484870e-001
  -9.04124705380607185390e-001+j2.85762058426524356847e-001
  -8.97259442088097047829e-001+j2.95254822860852750299e-001
  -8.90185768532671728437e-001+j3.04565667381783866663e-001
  -8.82910285023661423054e-001+j3.13688605003399789695e-001
  -8.75439803012301842600e-001+j3.22617965287942121133e-001
  -8.67781326530301821975e-001+j3.31348402793375518272e-001
  -8.59942033295111762925e-001+j3.39874904253954668309e-001
  -8.51929255579535027465e-001+j3.48192794486257672926e-001
  -8.43750460942394697739e-001+j3.56297741021447400556e-001
  -8.35413232915250159039e-001+j3.64185757472571869364e-001
  -8.26925251737735900193e-001+j3.71853205653435769928e-001
  -8.18294275230999845760e-001+j3.79296796472916530885e-001
  -8.09528119895009168339e-001+j3.86513589635514798193e-001
  -8.00634642311238486911e-001+j3.93500992185284004243e-001
  -7.91621720927525585054e-001+j4.00256755936173214128e-001
  -7.82497238296688046866e-001+j4.06778973837082336029e-001
  -7.73269063835039682786e-001+j4.13066075324599824015e-001
</dep>
<dep S[2,1] frequency>
  +1.29754546347965460384e-002-j8.90714754965538507703e-002
  +1.11309613058638845473e-002-j7.81878193466024745684e-002
  +9.52121705215569491543e-003-j6.72105691222251028227e-002
  +8.15091646097609867638e-003-j5.61463626674904223157e-002
  +7.02452280192100708689e-003-j4.50020933929242139548e-002
  +6.14625223746168014571e-003-j3.37849010253225626177e-002
  +5.52005841810554453986e-003-j2.25021612533742726425e-002
  +5.14961754847576003158e-003-j1.11614742821921249238e-002
  +5.03831401088217223361e-003+j2.29347682683895225369e-004
  +5.18922663236276449084e-003+j1.16622939936061008337e-002
  +5.60511567996546666848e-003+j2.31291701256342643878e-002
  +6.28841066697649608841e-003+j3.46216132043497409887e-002
  +7.24119905006370689904e-003+j4.61311084456059034009e-002
  +8.46521589372795091322e-003+j5.76490064488104150819e-002
  +9.96183457420796170112e-003+j6.91665412781874017201e-002
  +1.17320585899346463421e-002+j8.06748492597393201953e-002
  +1.37765145399356692124e-002+j9.21649884152425102890e-002
  +1.60954463252130919315e-002+j1.03627958448835766347e-001
  +1.86887106211246489806e-002+j1.15054721196471504419e-001
  +2.15557736612838057866e-002+j1.26436221443901181116e-001
  +2.46957093654602832800e-002+j1.37763408015026178610e-001
  +2.81071988355571233953e-002+j1.49027255029271332720e-001
  +3.17885312349861504089e-002+j1.60218783224370719953e-001
  +3.57376060577919707484e-002+j1.71329081239528530078e-001
  +3.99519367847407380623e-002+j1.82349326753283053071e-001
  +4.44286559144287940271e-002+j1.93270807370790692614e-001
  +4.91645213483350440598e-002+j2.04084941156420368591e-001
  +5.41559240997679935958e-002+j2.14783296709659454748e-001
  +5.93988972879211374334e-002+j2.25357612685315789047e-001
  +6.48891263698523346193e-002+j2.35799816662794592403e-001
  +7.06219605552080853528e-002+j2.46102043273822096436e-001
  +7.65924253410634747752e-002+j2.56256651503362575806e-001
