<Qucs Dataset 0.0.19>
<indep frequency 10>
  +5.60000000000000000000e+009
  +5.62222222222222232819e+009
  +5.64444444444444465637e+009
  +5.66666666666666698456e+009
  +5.68888888888888931274e+009
  +5.71111111111111068726e+009
  +5.73333333333333301544e+009
  +5.75555555555555534363e+009
  +5.77777777777777767181e+009
  +5.80000000000000000000e+009
</indep>
<indep acfrequency 10>
  +5.60000000000000000000e+009
  +5.62222222222222232819e+009
  +5.64444444444444465637e+009
  +5.66666666666666698456e+009
  +5.68888888888888931274e+009
  +5.71111111111111068726e+009
  +5.73333333333333301544e+009
  +5.75555555555555534363e+009
  +5.77777777777777767181e+009
  +5.80000000000000000000e+009
</indep>
<dep SWR frequency>
  +9.06365898817703737222e+002
  +1.52143133688168745721e+003
  +3.06038959580256459958e+003
  +9.00952241525448152970e+003
  +1.09895347641142652719e+005
  +4.98734254042625616421e+004
  +7.00790938098392143729e+003
  +2.66127573994226349896e+003
  +1.39305349579807443661e+003
  +8.56566621836117974453e+002
</dep>
<dep ZofS11 frequency>
  +5.52262230483892002653e-002-j1.66080137786164283575e+000
  +3.28853905943394392297e-002-j1.28186897957715140173e+000
  +1.63431276383971084420e-002-j9.03819276237716962008e-001
  +5.55029971388970935764e-003-j5.26767671623148414639e-001
  +4.54982454231720801537e-004-j1.50827436835808847970e-001
  +1.00255801827713215968e-003+j2.23890365561591836441e-001
  +7.13581356102876897957e-003+j5.97276952691205398338e-001
  +1.87950415014749849796e-002+j9.69225887752029446887e-001
  +3.59181413409612321219e-002+j1.33963314163637714493e+000
  +5.84407227878836546542e-002+j1.70839714976173850935e+000
</dep>
<dep dBS21 frequency>
  -2.35620135806897401665e+001
  -2.58076308080393204136e+001
  -2.88400049563332032676e+001
  -3.35273818132599714659e+001
  -4.43892721961539393760e+001
  -4.09582662179993235441e+001
  -3.24365242127246418136e+001
  -2.82335620301535499266e+001
  -2.54253109386562137217e+001
  -2.33171459978374286948e+001
</dep>
<dep dBS11 frequency>
  -1.91664165075139322769e-002
  -1.14180517757300429432e-002
  -5.67632954909223861467e-003
  -1.92815762554245833174e-003
  -1.58075656972631766514e-004
  -3.48317348119816616418e-004
  -2.47888185329259592288e-003
  -6.52761374291547201432e-003
  -1.24702908484505547992e-002
  -2.02807192406669889451e-002
</dep>
<dep S[1,1] frequency>
  -9.95596493498065227001e-001-j6.62126546244906355465e-002
  -9.97374349485018019124e-001-j5.11737869846950674257e-002
  -9.98693830602519039275e-001-j3.61173548171244279681e-002
  -9.99556123841631949389e-001-j2.10636922766129601470e-002
  -9.99963602397277773193e-001-j6.03293278071858739969e-003
  -9.99919800182835993851e-001+j8.95507594347218910391e-003
  -9.99429379225725389446e-001+j2.38808535485321854486e-002
  -9.98498090387092362974e-001+j3.87253648197443678391e-002
  -9.97132727917757977210e-001+j5.34700928842312753209e-002
  -9.95341078421636549223e-001+j6.80971073401063498043e-002
</dep>
<dep S[1,2] frequency>
  +4.40350650193466197635e-003-j6.62126546244906355465e-002
  +2.62565051498186985413e-003-j5.11737869846950674257e-002
  +1.30616939748084970319e-003-j3.61173548171244279681e-002
  +4.43876158367939588345e-004-j2.10636922766129601470e-002
  +3.63976027222268072592e-005-j6.03293278071858739969e-003
  +8.01998171640061485732e-005+j8.95507594347218910391e-003
  +5.70620774274610553789e-004+j2.38808535485321854486e-002
  +1.50190961290752600377e-003+j3.87253648197443678391e-002
  +2.86727208224191176811e-003+j5.34700928842312753209e-002
  +4.65892157836345077726e-003+j6.80971073401063498043e-002
</dep>
<dep S[2,1] frequency>
  +4.40350650193466197635e-003-j6.62126546244906355465e-002
  +2.62565051498186985413e-003-j5.11737869846950674257e-002
  +1.30616939748084970319e-003-j3.61173548171244279681e-002
  +4.43876158367939588345e-004-j2.10636922766129601470e-002
  +3.63976027222268072592e-005-j6.03293278071858739969e-003
  +8.01998171640061485732e-005+j8.95507594347218910391e-003
  +5.70620774274610553789e-004+j2.38808535485321854486e-002
  +1.50190961290752600377e-003+j3.87253648197443678391e-002
  +2.86727208224191176811e-003+j5.34700928842312753209e-002
  +4.65892157836345077726e-003+j6.80971073401063498043e-002
</dep>
<dep S[2,2] frequency>
  -9.95596493498065227001e-001-j6.62126546244906355465e-002
  -9.97374349485018019124e-001-j5.11737869846950674257e-002
  -9.98693830602519039275e-001-j3.61173548171244279681e-002
  -9.99556123841631949389e-001-j2.10636922766129601470e-002
  -9.99963602397277773193e-001-j6.03293278071858739969e-003
  -9.99919800182835993851e-001+j8.95507594347218910391e-003
  -9.99429379225725389446e-001+j2.38808535485321854486e-002
  -9.98498090387092362974e-001+j3.87253648197443678391e-002
  -9.97132727917757977210e-001+j5.34700928842312753209e-002
  -9.95341078421636549223e-001+j6.80971073401063498043e-002
</dep>
<dep _net0.v acfrequency>
  +2.78502204749483863594e-003-j4.18765597078942578002e-002
  +1.66060719338729134882e-003-j3.23651446735833264734e-002
  +8.26094061209937165907e-004-j2.28426208565134757078e-002
  +2.80731931897578736688e-004-j1.33218487053988823843e-002
  +2.30198651943895421740e-005-j3.81556171155277836990e-003
  +5.07228180334785139346e-005+j5.66368732023067502496e-003
  +3.60892265383232018448e-004+j1.51035779364552258386e-002
  +9.49891043297993245553e-004+j2.44920712102696218337e-002
  +1.81342209025962233966e-003+j3.38174560429865614375e-002
  +2.94656072554693847926e-003+j4.30683922527413040604e-002
</dep>
