<Qucs Dataset 0.0.19>
<indep frequency 10>
  +5.60000000000000000000e+009
  +5.62222222222222232819e+009
  +5.64444444444444465637e+009
  +5.66666666666666698456e+009
  +5.68888888888888931274e+009
  +5.71111111111111068726e+009
  +5.73333333333333301544e+009
  +5.75555555555555534363e+009
  +5.77777777777777767181e+009
  +5.80000000000000000000e+009
</indep>
<indep acfrequency 10>
  +5.60000000000000000000e+009
  +5.62222222222222232819e+009
  +5.64444444444444465637e+009
  +5.66666666666666698456e+009
  +5.68888888888888931274e+009
  +5.71111111111111068726e+009
  +5.73333333333333301544e+009
  +5.75555555555555534363e+009
  +5.77777777777777767181e+009
  +5.80000000000000000000e+009
</indep>
<dep SWR frequency>
  +inf
  +inf
  +inf
  +inf
  +inf
  +inf
  +inf
  +inf
  +inf
  +1.80143985094819840000e+016
</dep>
<dep ZofS11 frequency>
  +2.24028579611160986598e-015+j5.10449342055799490936e+001
  -3.47025374027118834308e-015+j5.15583783969200624142e+001
  +1.23588135555551292123e-015+j5.20787350863527578326e+001
  -1.24109825292737950705e-015+j5.26062082768368881602e+001
  -1.88057312504554743531e-016+j5.31410097267331522630e+001
  -4.02862140300167423763e-015+j5.36833593324091111754e+001
  -3.04819525746620616181e-015+j5.42334855335400263243e+001
  +2.10627075929550231366e-015+j5.47916257426980308765e+001
  +4.35980143786148229819e-016+j5.53580268009510518823e+001
  -5.42775714843468636748e-015+j5.59329454613325651735e+001
</dep>
<dep dBS11 frequency>
  +0.00000000000000000000e+000
  +0.00000000000000000000e+000
  +0.00000000000000000000e+000
  +0.00000000000000000000e+000
  +0.00000000000000000000e+000
  +0.00000000000000000000e+000
  +0.00000000000000000000e+000
  +0.00000000000000000000e+000
  +0.00000000000000000000e+000
  -9.64327466553287135636e-016
</dep>
<dep S[1,1] frequency>
  +2.06803533153129374955e-002+j9.99786138625033071747e-001
  +3.06820879673922325415e-002+j9.99529193909793334250e-001
  +4.07111902983157830649e-002+j9.99170955835133489664e-001
  +5.07674529580441555310e-002+j9.98710501456829935485e-001
  +6.08506626661357782893e-002+j9.98146881402277474926e-001
  +7.09605996802975813598e-002+j9.97479119226569399537e-001
  +8.10970372397905592265e-002+j9.96706210751657772917e-001
  +9.12597409823917987692e-002+j9.95827123388305146534e-001
  +1.01448468333543970199e-001+j9.94840795440545822004e-001
  +1.11662967866246271020e-001+j9.93746135392385654406e-001
</dep>
<dep _net0.v acfrequency>
  +3.22767467946178276961e-001+j3.16160137111994865577e-001
  +3.25930294151498489708e-001+j3.16078884058704767668e-001
  +3.29101774776760724883e-001+j3.15965599232652882833e-001
  +3.32281844252125146966e-001+j3.15819990773249292815e-001
  +3.35470435132394273481e-001+j3.15641758462515853445e-001
  +3.38667477928953630784e-001+j3.15430593521461133388e-001
  +3.41872900933761270093e-001+j3.15186178401104410973e-001
  +3.45086630034974972681e-001+j3.14908186568057746335e-001
  +3.48308588523784490310e-001+j3.14596282284577866140e-001
  +3.51538696891990964932e-001+j3.14250120383000264290e-001
</dep>
