<Qucs Dataset 0.0.19>
<indep SSl 1>
  +1.45000000000000007355e-002
</indep>
<indep SSw 1>
  +1.54999999999999994553e-003
</indep>
<indep Gl 1>
  +1.77000000000000004552e-002
</indep>
<indep Gw 1>
  +1.54999999999999994553e-003
</indep>
<indep Sl 1>
  +1.32999999999999993228e-002
</indep>
<indep Sw 1>
  +1.54999999999999994553e-003
</indep>
<indep frequency 10>
  +5.60000000000000000000e+009
  +5.64444444444444465637e+009
  +5.68888888888888931274e+009
  +5.73333333333333301544e+009
  +5.77777777777777767181e+009
  +5.82222222222222232819e+009
  +5.86666666666666698456e+009
  +5.91111111111111068726e+009
  +5.95555555555555534363e+009
  +6.00000000000000000000e+009
</indep>
<dep SWR frequency>
  +1.55516484685643230357e+000
  +1.31875383836927584369e+000
  +1.11826634126639978817e+000
  +1.04935873329358719808e+000
  +1.18332277040653122135e+000
  +1.33387377887561675571e+000
  +1.48964422616859715198e+000
  +1.63618886608323665932e+000
  +1.77540422612428927529e+000
  +1.92485882739017033494e+000
</dep>
<dep ZofS11 frequency>
  +4.22140785327117811221e+001+j1.89125913463823458471e+001
  +4.78255929996673572191e+001+j1.33981050549835583041e+001
  +4.96768779443904477944e+001+j5.56441720389398675195e+000
  +4.80705170295814951942e+001-j1.36284071844629872672e+000
  +4.50302196412650701518e+001-j6.26465108561388372976e+000
  +4.06891564276604071893e+001-j9.12839698785469622067e+000
  +3.62145730402360328526e+001-j1.00692875053454304890e+001
  +3.25689226548521446603e+001-j9.94879554125018117361e+000
  +2.96697197586789371826e+001-j9.43776918677061615881e+000
  +2.68367794258655223416e+001-j7.72969522817516363489e+000
</dep>
<dep dBS11 frequency>
  -1.32599393048428240149e+001
  -1.72359844542601727824e+001
  -2.50623880784143473477e+001
  -3.23650796215780758303e+001
  -2.15180306479990015589e+001
  -1.68899010420130544219e+001
  -1.41251330497734031155e+001
  -1.23478091438712027639e+001
  -1.10759616315703102174e+001
  -1.00005892597583070369e+001
</dep>
<dep S[1,1] frequency>
  -4.06591226594245624959e-002+j2.13433361054089942854e-001
  -3.40570552826674477487e-003+j1.37425541141195317607e-001
  -1.24925102383821595708e-004+j5.58315273717507054574e-002
  -1.94775695952251748366e-002-j1.41672093251833872141e-002
  -4.77435518155849281108e-002-j6.90701105827631611778e-002
  -9.16079191619962873716e-002-j1.09876757417466330846e-001
  -1.44287846495614491271e-001-j1.33645193717535082367e-001
  -1.93778109838859402547e-001-j1.43839279410883591481e-001
  -2.37811746552704872393e-001-j1.46632642816158786925e-001
  -2.88421066710777385111e-001-j1.29613737661187333750e-001
</dep>
