<Qucs Dataset 0.0.19>
<indep SSl 1>
  +1.45000000000000007355e-002
</indep>
<indep SSw 1>
  +1.54999999999999994553e-003
</indep>
<indep Gl 1>
  +1.77000000000000004552e-002
</indep>
<indep Gw 1>
  +1.54999999999999994553e-003
</indep>
<indep Sl 1>
  +1.32999999999999993228e-002
</indep>
<indep Sw 1>
  +1.54999999999999994553e-003
</indep>
<indep frequency 10>
  +5.60000000000000000000e+009
  +5.64444444444444465637e+009
  +5.68888888888888931274e+009
  +5.73333333333333301544e+009
  +5.77777777777777767181e+009
  +5.82222222222222232819e+009
  +5.86666666666666698456e+009
  +5.91111111111111068726e+009
  +5.95555555555555534363e+009
  +6.00000000000000000000e+009
</indep>
<dep SWR frequency>
  +3.87360003555236342976e+000
  +3.86648092192420156366e+000
  +3.86054524187824998904e+000
  +3.85387415637556696169e+000
  +3.84507655225081723671e+000
  +3.83315519555973560628e+000
  +3.81741003854692229069e+000
  +3.79736769624738723650e+000
  +3.77272953436611846456e+000
  +3.74333311544315394670e+000
</dep>
<dep ZofS11 frequency>
  +1.29147408583709193408e+001+j1.11289927710522040805e+000
  +1.29663951476921592842e+001+j2.50310360364486728102e+000
  +1.30383306230709958839e+001+j3.95242165413004364893e+000
  +1.31399114612753535880e+001+j5.45872157000752800116e+000
  +1.32790317697724393753e+001+j7.02052554003495377088e+000
  +1.34627308677096468870e+001+j8.63717050109073092301e+000
  +1.36977102995926554030e+001+j1.03088610073716377968e+001
  +1.39907772696246475164e+001+j1.20366613947732741252e+001
  +1.43492418790696127928e+001+j1.38224545810975083526e+001
  +1.47812951254207298746e+001+j1.56688810369855513471e+001
</dep>
<dep dBS11 frequency>
  -4.58847128927496772377e+000
  -4.59731939015723867215e+000
  -4.60472338020985372253e+000
  -4.61307387524139400625e+000
  -4.62413373763539325978e+000
  -4.63920751434545763914e+000
  -4.65927111215501987829e+000
  -4.68506902087150489677e+000
  -4.71718631229753526668e+000
  -4.75610158832424101405e+000
</dep>
<dep S[1,1] frequency>
  -5.88955439181140461002e-001+j2.81070435241539684501e-002
  -5.85642928158857767329e-001+j6.30340758472641982113e-002
  -5.80124752478331062733e-001+j9.90717746836485418926e-002
  -5.72034343544872925236e-001+j1.35909246327721888736e-001
  -5.61087028981702706787e-001+j1.73195623426378203513e-001
  -5.47071941402925476794e-001+j2.10553878672582878151e-001
  -5.29844976595200578551e-001+j2.47590677158869454377e-001
  -5.09322954433968577703e-001+j2.83903557872614897839e-001
  -4.85478935601901695485e-001+j3.19086356248323710361e-001
  -4.58338559929523103875e-001+j3.52733506839349675310e-001
</dep>
