<Qucs Dataset 0.0.19>
<indep acfrequency 20>
  +5.00000000000000000000e+009
  +5.05263157894736862183e+009
  +5.10526315789473724365e+009
  +5.15789473684210491180e+009
  +5.21052631578947353363e+009
  +5.26315789473684215546e+009
  +5.31578947368421077728e+009
  +5.36842105263157939911e+009
  +5.42105263157894706726e+009
  +5.47368421052631568909e+009
  +5.52631578947368431091e+009
  +5.57894736842105293274e+009
  +5.63157894736842060089e+009
  +5.68421052631578922272e+009
  +5.73684210526315784454e+009
  +5.78947368421052646637e+009
  +5.84210526315789508820e+009
  +5.89473684210526275635e+009
  +5.94736842105263137817e+009
  +6.00000000000000000000e+009
</indep>
<indep frequency 50>
  +5.00000000000000000000e+009
  +5.02040816326530647278e+009
  +5.04081632653061199188e+009
  +5.06122448979591846466e+009
  +5.08163265306122493744e+009
  +5.10204081632653045654e+009
  +5.12244897959183692932e+009
  +5.14285714285714244843e+009
  +5.16326530612244892120e+009
  +5.18367346938775539398e+009
  +5.20408163265306091309e+009
  +5.22448979591836738586e+009
  +5.24489795918367385864e+009
  +5.26530612244897937775e+009
  +5.28571428571428585052e+009
  +5.30612244897959136963e+009
  +5.32653061224489784241e+009
  +5.34693877551020431519e+009
  +5.36734693877550983429e+009
  +5.38775510204081630707e+009
  +5.40816326530612277985e+009
  +5.42857142857142829895e+009
  +5.44897959183673477173e+009
  +5.46938775510204124451e+009
  +5.48979591836734676361e+009
  +5.51020408163265323639e+009
  +5.53061224489795875549e+009
  +5.55102040816326522827e+009
  +5.57142857142857170105e+009
  +5.59183673469387722015e+009
  +5.61224489795918369293e+009
  +5.63265306122449016571e+009
  +5.65306122448979568481e+009
  +5.67346938775510215759e+009
  +5.69387755102040863037e+009
  +5.71428571428571414948e+009
  +5.73469387755102062225e+009
  +5.75510204081632614136e+009
  +5.77551020408163261414e+009
  +5.79591836734693908691e+009
  +5.81632653061224460602e+009
  +5.83673469387755107880e+009
  +5.85714285714285755157e+009
  +5.87755102040816307068e+009
  +5.89795918367346954346e+009
  +5.91836734693877506256e+009
  +5.93877551020408153534e+009
  +5.95918367346938800812e+009
  +5.97959183673469352722e+009
  +6.00000000000000000000e+009
</indep>
<dep ZofS11 frequency>
  +2.15493650996759882332e+001-j2.37412821009429038099e+001
  +2.11973606951547104416e+001-j2.36950513455473590341e+001
  +2.07987900277598107834e+001-j2.35850317642655191719e+001
  +2.04520252940449083212e+001-j2.34918944870250321344e+001
  +2.01742788126906553714e+001-j2.34543820575605330703e+001
  +1.99252271729310841408e+001-j2.34254200293226659824e+001
  +1.97351107466877095931e+001-j2.33726743756368549043e+001
  +1.95428195425537261087e+001-j2.33308556352956095736e+001
  +1.92602074494095241164e+001-j2.32912207847670593708e+001
  +1.89447808214648176772e+001-j2.32092547550887928764e+001
  +1.86686105047254784495e+001-j2.30987300534442532296e+001
  +1.83721690700117470385e+001-j2.29806423074695800324e+001
  +1.80313871986529790092e+001-j2.28825645413391036698e+001
  +1.77899150799139036394e+001-j2.28097889470414223467e+001
  +1.76749997637831910424e+001-j2.27808859816369704276e+001
  +1.75715667948957339206e+001-j2.27609909061857962342e+001
  +1.73528902929210850914e+001-j2.26675511864242267279e+001
  +1.70916007427983771549e+001-j2.25709304077365828789e+001
  +1.68396625601035694331e+001-j2.24702648509562372681e+001
  +1.65423644652440486880e+001-j2.23408049022583981014e+001
  +1.62090052075424253530e+001-j2.21763454579012169177e+001
  +1.59609195619614769868e+001-j2.20882339428207323806e+001
  +1.58805194538322211883e+001-j2.21083953710311895691e+001
  +1.58739881552268276010e+001-j2.21696201901497680353e+001
  +1.57099459003370363064e+001-j2.20829003448539502585e+001
  +1.53859483565391865767e+001-j2.18708718577486962431e+001
  +1.50602349921145108880e+001-j2.17916047113076878361e+001
  +1.48156876975271405428e+001-j2.17318837345688926632e+001
  +1.46058000166520383090e+001-j2.16140523307062615288e+001
  +1.44578405178175124490e+001-j2.15209286654996567734e+001
  +1.43813109439021538094e+001-j2.15354614139207640733e+001
  +1.43031215649874479112e+001-j2.15840848790491222076e+001
  +1.41015834333754757068e+001-j2.15046177242358496073e+001
  +1.38724324919231118969e+001-j2.13187492879030244808e+001
  +1.36363997948113393477e+001-j2.12123964448096486990e+001
  +1.34468021251095546376e+001-j2.11793079051214903075e+001
  +1.33271319596018553710e+001-j2.11386789896789970555e+001
  +1.33025992179990826259e+001-j2.11225245888562405128e+001
  +1.32883759273237505028e+001-j2.11133136245063646186e+001
  +1.31307948058315488993e+001-j2.10587508431328984670e+001
  +1.28929206417256576600e+001-j2.09507562783110685700e+001
  +1.26916972568125725473e+001-j2.08102853492401287383e+001
  +1.25462538354031600818e+001-j2.06957079254698328441e+001
  +1.23965457828736411727e+001-j2.06101444528760247010e+001
  +1.23301398538057664922e+001-j2.05953535271211016777e+001
  +1.23910231110295878665e+001-j2.06880300882954344388e+001
  +1.24391643978283124028e+001-j2.07319293076900166284e+001
  +1.22696256184767307218e+001-j2.05908360167696216081e+001
  +1.20113179959293763233e+001-j2.03995178227279474470e+001
  +1.18512899207406103841e+001-j2.03004416823527940039e+001
</dep>
<dep dBS11 frequency>
  -6.16876520897701485779e+000
  -6.07206520085661516362e+000
  -5.96855552278266277000e+000
  -5.87773417283148269519e+000
  -5.80080951697891844532e+000
  -5.73124159287892176451e+000
  -5.68118192642415120730e+000
  -5.62926699787112205797e+000
  -5.55064724044496937694e+000
  -5.46637367456800582488e+000
  -5.39598677900954637465e+000
  -5.31996983096862496865e+000
  -5.22867634021535998556e+000
  -5.16405061543957799586e+000
  -5.13272438442378664547e+000
  -5.10396529828289402531e+000
  -5.04749807083610235736e+000
  -4.97846185135620977746e+000
  -4.91225366067994428931e+000
  -4.83462975527121852082e+000
  -4.74860798013022389341e+000
  -4.68156977964818832305e+000
  -4.65607502384084970259e+000
  -4.64945285523178242215e+000
  -4.60721234326344042387e+000
  -4.52632701110485680118e+000
  -4.43470450594862075633e+000
  -4.36578540499630030070e+000
  -4.31111340520495378570e+000
  -4.27310214916316599698e+000
  -4.24916201628707845828e+000
  -4.22245819041536751826e+000
  -4.16732991858247725503e+000
  -4.11062224542563292573e+000
  -4.04638125283434035850e+000
  -3.99136715453283752453e+000
  -3.95783423087907237914e+000
  -3.95143322277088859806e+000
  -3.94771086274302795971e+000
  -3.90352781334870346797e+000
  -3.83820248086145188182e+000
  -3.78559256547200817522e+000
  -3.74813392830452407622e+000
  -3.70759416659628548985e+000
  -3.68828767992133066400e+000
  -3.70156581146106677949e+000
  -3.71367301011943107270e+000
  -3.67019380814759088594e+000
  -3.60222100425922242550e+000
  -3.55884383690982897264e+000
</dep>
<dep SWR frequency>
  +2.93347125982114365073e+000
  +2.97650821680009913806e+000
  +3.02418462046010061428e+000
  +3.06745483237915639307e+000
  +3.10520480613397564795e+000
  +3.14024980080747972977e+000
  +3.16601783761278765539e+000
  +3.19324224651584520629e+000
  +3.23547438132480635886e+000
  +3.28213882043859106474e+000
  +3.32226817146905650802e+000
  +3.36683866606303006108e+000
  +3.42213295768993353008e+000
  +3.46249315784235944804e+000
  +3.48243366217521321815e+000
  +3.50096184972237933763e+000
  +3.53797308582334935068e+000
  +3.58439562036119818700e+000
  +3.63017608297947047546e+000
  +3.68548982666380320339e+000
  +3.74895537210230500591e+000
  +3.80007299018967348303e+000
  +3.81990890623449885766e+000
  +3.82509765547761704241e+000
  +3.85855425772826299280e+000
  +3.92440326371822445495e+000
  +4.00196152100304747279e+000
  +4.06249408468009143292e+000
  +4.11191916805020607484e+000
  +4.14704322471435382624e+000
  +4.16949401533539987241e+000
  +4.19484292642485723235e+000
  +4.24822196124417317264e+000
  +4.30465308167114546478e+000
  +4.37052765057417502703e+000
  +4.42865708241418598590e+000
  +4.46489570144434821941e+000
  +4.47188431752583603895e+000
  +4.47595898871618658177e+000
  +4.52492758582348120200e+000
  +4.59942915790821960087e+000
  +4.66132924437114048999e+000
  +4.70647858884216496733e+000
  +4.75638566832989884148e+000
  +4.78054476224217328451e+000
  +4.76390175862523257422e+000
  +4.74883171199881282121e+000
  +4.80342065577683019484e+000
  +4.89144185212309334787e+000
  +4.94939608944116926637e+000
</dep>
<dep Pr1.v acfrequency>
  +5.64631857299558717264e-004-j3.61479653845848015060e-004
  +5.70981643027036484678e-004-j3.83482814405570852923e-004
  +5.74592194730682713673e-004-j3.94807808125463143446e-004
  +5.72630825563226367007e-004-j4.02440594425451463566e-004
  +5.74753382172374588724e-004-j4.18984922507321195986e-004
  +5.78382044548993515254e-004-j4.35098836773100707247e-004
  +5.73163995566009854335e-004-j4.36881401911400882223e-004
  +5.75186672376232699042e-004-j4.52196179248857597043e-004
  +5.77944262232008725867e-004-j4.73440375096416377586e-004
  +5.70598183443933289552e-004-j4.64577113865149928136e-004
  +5.71892644120938721183e-004-j4.86495680573750984010e-004
  +5.71446256576358009582e-004-j4.98675867875396838444e-004
  +5.64832648813837212565e-004-j4.92039763201089779161e-004
  +5.62051769806700741473e-004-j5.09973314759223288022e-004
  +5.62898651616591891994e-004-j5.16404360916835952419e-004
  +5.53268104672997797396e-004-j5.11636505423893267822e-004
  +5.53072986266632429624e-004-j5.27919024170393725789e-004
  +5.49917408324670869101e-004-j5.33871763670161719566e-004
  +5.41779323303332284792e-004-j5.21108543414961194323e-004
  +5.43625243224575408797e-004-j5.42900321848284808657e-004
</dep>
<dep _net1.v acfrequency>
  +5.64631857299558717264e-004-j3.61479653845848015060e-004
  +5.70981643027036484678e-004-j3.83482814405570852923e-004
  +5.74592194730682713673e-004-j3.94807808125463143446e-004
  +5.72630825563226367007e-004-j4.02440594425451463566e-004
  +5.74753382172374588724e-004-j4.18984922507321195986e-004
  +5.78382044548993515254e-004-j4.35098836773100707247e-004
  +5.73163995566009854335e-004-j4.36881401911400882223e-004
  +5.75186672376232699042e-004-j4.52196179248857597043e-004
  +5.77944262232008725867e-004-j4.73440375096416377586e-004
  +5.70598183443933289552e-004-j4.64577113865149928136e-004
  +5.71892644120938721183e-004-j4.86495680573750984010e-004
  +5.71446256576358009582e-004-j4.98675867875396838444e-004
  +5.64832648813837212565e-004-j4.92039763201089779161e-004
  +5.62051769806700741473e-004-j5.09973314759223288022e-004
  +5.62898651616591891994e-004-j5.16404360916835952419e-004
  +5.53268104672997797396e-004-j5.11636505423893267822e-004
  +5.53072986266632429624e-004-j5.27919024170393725789e-004
  +5.49917408324670869101e-004-j5.33871763670161719566e-004
  +5.41779323303332284792e-004-j5.21108543414961194323e-004
  +5.43625243224575408797e-004-j5.42900321848284808657e-004
</dep>
<dep _net0.v acfrequency>
  +1.43485810515295519885e-001-j8.08964679073553016853e-002
  +1.40386563164095590217e-001-j8.22762319322756091600e-002
  +1.38181813509888701264e-001-j8.34602748948631428805e-002
  +1.36375296907290027848e-001-j8.43218238936433717168e-002
  +1.33629931655773970256e-001-j8.52994048198099236169e-002
  +1.30757844269030448769e-001-j8.63181945045397164273e-002
  +1.29554808951614724988e-001-j8.67669250262992908240e-002
  +1.26941240804290256250e-001-j8.75191423857772932138e-002
  +1.23583397831726490845e-001-j8.82682788359699654901e-002
  +1.23145798700410522009e-001-j8.89132260296501691910e-002
  +1.19908257320496994258e-001-j8.95278513211831827867e-002
  +1.17380569896838579669e-001-j9.01827159348146806250e-002
  +1.16665821737392205737e-001-j9.08260748287925273603e-002
  +1.13890929857552045124e-001-j9.11435636173071189736e-002
  +1.12128914260164830319e-001-j9.18425407621739492425e-002
  +1.11580642054716516753e-001-j9.19641837418986030084e-002
  +1.08821180682968657316e-001-j9.23505517648714052692e-002
  +1.07207634121918360393e-001-j9.25299300788292727882e-002
  +1.07640913906648455489e-001-j9.27292969535009337090e-002
  +1.04653534053502333956e-001-j9.27633243017591258006e-002
</dep>
<dep S[1,1] frequency>
  -2.59015786916307444443e-001-j4.17762602436510421811e-001
  -2.64490054137524854827e-001-j4.20832408198548058031e-001
  -2.71365046323067682366e-001-j4.23526800242623235881e-001
  -2.77379245227732051937e-001-j4.25936065337528979580e-001
  -2.81830282887626293320e-001-j4.28426735500134103773e-001
  -2.85794923817304091784e-001-j4.30749922163302156886e-001
  -2.89178428261735065430e-001-j4.32085749821341513766e-001
  -2.92489518060066011618e-001-j4.33616102343106935013e-001
  -2.97139457017750185930e-001-j4.36209514736168313398e-001
  -3.02798551456770648205e-001-j4.38568128218736197343e-001
  -3.08240315088242844421e-001-j4.40065550491613000084e-001
  -3.14125770666308423706e-001-j4.41692207421218230312e-001
  -3.20515397417698466587e-001-j4.44159380743023191052e-001
  -3.25119387107562329842e-001-j4.45873010962248961242e-001
  -3.27253723020650588715e-001-j4.46782649994446834363e-001
  -3.29107814847555357751e-001-j4.47700302390662663310e-001
  -3.33659936132619683313e-001-j4.48841983411463751885e-001
  -3.38958665875078446472e-001-j4.50451957200413033444e-001
  -3.44198901694159453690e-001-j4.51894940466998129569e-001
  -3.50566140478653587298e-001-j4.53436467046332891684e-001
  -3.58015698538808324614e-001-j4.54859957095668621108e-001
  -3.63185770390608175795e-001-j4.56487968995450299481e-001
  -3.64261589890617409893e-001-j4.57823266556816710349e-001
  -3.63603833255671304858e-001-j4.58915270195491831196e-001
  -3.67404211716603201765e-001-j4.59538514675849663060e-001
  -3.75487220229177909303e-001-j4.60085163429379662148e-001
  -3.81993786504329080334e-001-j4.62892000200057940340e-001
  -3.86921875348422206198e-001-j4.65017436591235677756e-001
  -3.92043373421121610356e-001-j4.65712030684272138004e-001
  -3.95806603346111174346e-001-j4.66026384069469445937e-001
  -3.96942775170004313878e-001-j4.67275468471621602262e-001
  -3.97661764129928041456e-001-j4.69141301619293904501e-001
  -4.02212012104170457683e-001-j4.70410115843278853198e-001
  -4.08688647725326648086e-001-j4.70179057441862169320e-001
  -4.14281401251009706588e-001-j4.71432982767567398952e-001
  -4.18103583746125773146e-001-j4.73380082770618826338e-001
  -4.20792579212518780274e-001-j4.74262410337023099238e-001
  -4.21450619869642661985e-001-j4.74303204622669671853e-001
  -4.21830302758360864424e-001-j4.74329585221725524846e-001
  -4.25406356208404334840e-001-j4.75477576322830608468e-001
  -4.31188620303285197188e-001-j4.76754516507117309665e-001
  -4.36789922962397880735e-001-j4.76937291413195407763e-001
  -4.41042972608802208434e-001-j4.76821594265995907236e-001
  -4.44997682360226409770e-001-j4.77295827739388556221e-001
  -4.46438411520787614695e-001-j4.77937487551765516347e-001
  -4.44024603852767929535e-001-j4.78819275003422417658e-001
  -4.42525366459114222195e-001-j4.78967555225965790910e-001
  -4.47629610979875913745e-001-j4.78690912891276187935e-001
  -4.55137378385627566768e-001-j4.78688436953457308043e-001
  -4.59552019125992861071e-001-j4.79044991375221052010e-001
</dep>
<indep Pr1.V 1>
  +0.00000000000000000000e+000
</indep>
<indep _net0.V 1>
  +0.00000000000000000000e+000
</indep>
<indep _net1.V 1>
  +0.00000000000000000000e+000
</indep>
