<Qucs Dataset 0.0.19>
<indep frequency 10>
  +1.00000000000000000000e+009
  +1.55555555555555558205e+009
  +2.11111111111111116409e+009
  +2.66666666666666650772e+009
  +3.22222222222222232819e+009
  +3.77777777777777767181e+009
  +4.33333333333333301544e+009
  +4.88888888888888931274e+009
  +5.44444444444444465637e+009
  +6.00000000000000000000e+009
</indep>
<dep ZofS11 frequency>
  +1.04731084870022819189e+001-j2.67932965407988092466e+002
  +1.05160937095883042502e+001-j1.87043891575946787498e+002
  +1.02698513720609820865e+001-j1.52419848977586752881e+002
  +1.20786118680593510533e+001-j1.31900107556725657787e+002
  +1.39848805207016457786e+001-j1.14674112577680944014e+002
  +1.53871423441561532286e+001-j9.26896112454381579937e+001
  +1.60931284328331187794e+001-j6.96210929665174802494e+001
  +1.52681219751200423218e+001-j5.11420654961384215653e+001
  +1.37438748566714004085e+001-j3.99934969170537399918e+001
  +1.12608595101686823625e+001-j3.48505911756536050916e+001
</dep>
<dep dBS11 frequency>
  -1.22280931883180760122e-001
  -2.43019067642776281923e-001
  -3.45430390491202887748e-001
  -5.24063167787929162778e-001
  -7.68585648463651516238e-001
  -1.18715288933209661693e+000
  -1.86596531387504738220e+000
  -2.55030837267301757620e+000
  -2.88540739888631669885e+000
  -2.62318708320338966899e+000
</dep>
<dep ZofS22 frequency>
  +1.58281840653206042902e+001-j3.46675775370013809606e+002
  +1.52363955938080604113e+001-j2.30444623179199965080e+002
  +1.54106747700464516981e+001-j1.84506943461605573020e+002
  +1.77329010688879478153e+001-j1.59751360946071883973e+002
  +2.01244436490937381734e+001-j1.46136770708070599767e+002
  +2.56640137128485115170e+001-j1.29107433747853065142e+002
  +3.03245460005590530272e+001-j1.07471088898352377328e+002
  +3.02839788014754205392e+001-j8.50662204275100464201e+001
  +2.43704946425306516744e+001-j6.68999614822805028780e+001
  +1.74593073581185862508e+001-j5.40173561103438757414e+001
</dep>
<dep dBS21 frequency>
  -1.75467299734308710413e+001
  -1.43243131249245969627e+001
  -1.22480567370149824313e+001
  -1.04045221306994157828e+001
  -8.74089476244459717691e+000
  -6.80236679258152143746e+000
  -5.17716467641944877442e+000
  -4.15890096740103487605e+000
  -3.69765682629833936090e+000
  -3.84325233913642216876e+000
</dep>
<dep S[1,1] frequency>
  +9.19844851567056309705e-001-j3.55136475528986805816e-001
  +8.43415709479863440201e-001-j4.83972663521480717108e-001
  +7.75650476221459772574e-001-j5.67370248209544736362e-001
  +7.07884497040283555691e-001-j6.20665718835090030048e-001
  +6.28948763480021488803e-001-j6.65000402009239155454e-001
  +4.91816715972543283542e-001-j7.20375739774852030806e-001
  +2.82796826429623893162e-001-j7.55486538570620091981e-001
  +5.07060613388819123037e-002-j7.43837133916626980223e-001
  -1.25667684163805470909e-001-j7.06254321022351083670e-001
  -2.33243977353898596094e-001-j7.01578169458487610477e-001
</dep>
<dep S[1,2] frequency>
  +5.04733437015495306488e-002+j1.23179692758434489175e-001
  +9.60579421299924546274e-002+j1.67570226479885509008e-001
  +1.41223283332016613656e-001+j1.98852901053694713918e-001
  +1.94001129757690404798e-001+j2.31429985501944546211e-001
  +2.54566117993303919764e-001+j2.61448650797478920893e-001
  +3.55071463221652616760e-001+j2.88985634534826563158e-001
  +4.78754414594177168940e-001+j2.70518812656530049932e-001
  +5.95079951679480467774e-001+j1.76526037249362610648e-001
  +6.49071347867572256973e-001+j4.75601786726993491783e-002
  +6.38459939293815725847e-001-j7.27392190004353400568e-002
</dep>
<dep S[2,1] frequency>
  +5.00227717056620918568e-002+j1.22842174134505377481e-001
  +9.50860679009010167917e-002+j1.67047140107370567508e-001
  +1.41661041759000377871e-001+j1.98809010450253648150e-001
  +1.93804202625341259747e-001+j2.31400303474415730554e-001
  +2.53427029903672829114e-001+j2.63451622833261345225e-001
  +3.53870093148546505102e-001+j2.89122361719144516101e-001
  +4.81200827435549927102e-001+j2.68389673031214970322e-001
  +5.93411400270531852463e-001+j1.77952997673915452870e-001
  +6.51691845283603021777e-001+j4.59072386914244623402e-002
  +6.38167399820437908353e-001-j7.40315141582151281519e-002
</dep>
<dep S[2,2] frequency>
  +9.47133363442790532361e-001-j2.78415430714130662793e-001
  +8.86269501956495675543e-001-j4.01747851441775383208e-001
  +8.29310180640788319195e-001-j4.81472740660421283376e-001
  +7.75035359607432416951e-001-j5.30590110571302120412e-001
  +7.33097119528014040668e-001-j5.56215821690333900307e-001
  +6.62120288205869100828e-001-j5.76532757973383214178e-001
  +5.53803776263571023719e-001-j5.96993029091669402675e-001
  +4.13205123720398692644e-001-j6.21748237151603544426e-001
  +2.56783742025329053682e-001-j6.68560015238568006168e-001
  +9.67649880839216158801e-002-j7.23256274052592740276e-001
</dep>
<indep _net0.V 1>
  +0.00000000000000000000e+000
</indep>
<indep _net1.V 1>
  +0.00000000000000000000e+000
</indep>
