<Qucs Dataset 0.0.19>
<indep SWR_band 1>
  +2.45392706924619005804e+002
</indep>
<indep Gw 1>
  +2.18000000000000008007e-003
</indep>
<indep SSw 1>
  +1.25000000000000002602e-003
</indep>
<indep Sw 1>
  +3.91000000000000028089e-003
</indep>
<indep SSl 1>
  +1.80999999999999997696e-003
</indep>
<indep Sl 1>
  +7.23000000000000031530e-003
</indep>
<indep Gl 1>
  +8.89000000000000033251e-003
</indep>
<indep frequency 10>
  +5.60000000000000000000e+009
  +5.64444444444444465637e+009
  +5.68888888888888931274e+009
  +5.73333333333333301544e+009
  +5.77777777777777767181e+009
  +5.82222222222222232819e+009
  +5.86666666666666698456e+009
  +5.91111111111111068726e+009
  +5.95555555555555534363e+009
  +6.00000000000000000000e+009
</indep>
<dep ZofS11 frequency>
  +2.04333758519914365781e-001-j2.66469279876247178152e+000
  +2.07259192425884974931e-001-j1.70883312893781003083e+000
  +2.10807171227167106098e-001-j7.43821801817536654156e-001
  +2.15028458454412152445e-001+j2.33187941980011276266e-001
  +2.19984158981728267213e-001+j1.22524541328431624265e+000
  +2.25747531726711081479e-001+j2.23564834276518009659e+000
  +2.32406262259368695533e-001+j3.26799653715057480952e+000
  +2.40065321161222616775e-001+j4.32625537288281236670e+000
  +2.48850575854867084313e-001+j5.41483174060693350782e+000
  +2.58913381255175101270e-001+j6.53866580926945406560e+000
</dep>
<dep dBS11 frequency>
  -7.07921423418504530689e-002
  -7.19256166059583090799e-002
  -7.32261409153648901160e-002
  -7.47073739639990824779e-002
  -7.63849483294042203019e-002
  -7.82767587450142188210e-002
  -8.04032984946507489621e-002
  -8.27880521214847953093e-002
  -8.54579537808498740370e-002
  -8.84439216796801402909e-002
</dep>
<dep SWR frequency>
  +2.45392706924619005804e+002
  +2.41525611625146666483e+002
  +2.37236073720765688222e+002
  +2.32532418786976336378e+002
  +2.27425580727675935577e+002
  +2.21929179560594974419e+002
  +2.16059585203958960165e+002
  +2.09835964781103399446e+002
  +2.03280310843050585845e+002
  +1.96417447829130708215e+002
</dep>
<dep S[1,1] frequency>
  -9.86264286514704990871e-001-j1.05424845714969822597e-001
  -9.89439248077594313280e-001-j6.77117163893498491545e-002
  -9.91166146344838905335e-001-j2.94970918440246449022e-002
  -9.91392749137294360118e-001+j9.24760556950474967020e-003
  -9.90054615860866960020e-001+j4.85524902307784486655e-002
  -9.87073660410040742974e-001+j8.84486175749173986205e-002
  -9.82356469903295947965e-001+j1.28967225762969539549e-001
  -9.75792341364818405225e-001+j1.70138756346917274787e-001
  -9.67250994634132221783e-001+j2.11991578024354337950e-001
  -9.56579916804231933369e-001+j2.54550314449946024631e-001
</dep>
