<Qucs Dataset 0.0.19>
<indep frequency 10>
  +5.60000000000000000000e+009
  +5.62222222222222232819e+009
  +5.64444444444444465637e+009
  +5.66666666666666698456e+009
  +5.68888888888888931274e+009
  +5.71111111111111068726e+009
  +5.73333333333333301544e+009
  +5.75555555555555534363e+009
  +5.77777777777777767181e+009
  +5.80000000000000000000e+009
</indep>
<indep acfrequency 10>
  +5.60000000000000000000e+009
  +5.62222222222222232819e+009
  +5.64444444444444465637e+009
  +5.66666666666666698456e+009
  +5.68888888888888931274e+009
  +5.71111111111111068726e+009
  +5.73333333333333301544e+009
  +5.75555555555555534363e+009
  +5.77777777777777767181e+009
  +5.80000000000000000000e+009
</indep>
<dep SWR frequency>
  +1.26951118568236887008e+000
  +1.17708768210377257013e+000
  +1.10272660868416072510e+000
  +1.07249465007510624837e+000
  +1.09914064116053045161e+000
  +1.15064390133012106610e+000
  +1.20411447404551896767e+000
  +1.25229377546645292973e+000
  +1.30235884866352802369e+000
  +1.36062253698073498676e+000
</dep>
<dep ZofS11 frequency>
  +4.66659578515817869970e+001+j1.10628206794728605189e+001
  +4.77120990344618647327e+001+j7.63694655000363109565e+000
  +4.77985632968299540835e+001+j4.24553382864851425182e+000
  +4.68910956243595649084e+001+j1.35039980456949182397e+000
  +4.56401402632941852744e+001-j1.18239535130030337662e+000
  +4.43316493543270766509e+001-j3.40387561760885493101e+000
  +4.31403834496494980044e+001-j5.25158689803285927411e+000
  +4.22905234306734101324e+001-j6.93123760499882024533e+000
  +4.13750352121427553698e+001-j8.41598846981095682906e+000
  +3.98654684510106420703e+001-j9.37063504883674802670e+000
</dep>
<dep dBS21 frequency>
  -2.97232516503192556456e+001
  -3.19056232202621572469e+001
  -3.48574831443340755754e+001
  -3.94481069380599365104e+001
  -5.02055635136430424836e+001
  -4.66751302573712862909e+001
  -3.80767021363751254626e+001
  -3.38412846187365090600e+001
  -3.10025492102673396744e+001
  -2.88102219941441184403e+001
</dep>
<dep dBS11 frequency>
  -1.85071106580488624616e+001
  -2.17937513414927224176e+001
  -2.62219971896896275609e+001
  -2.91237492047575550203e+001
  -2.65157962757361040929e+001
  -2.30923390495532068201e+001
  -2.06672068853731403237e+001
  -1.90143700152211110321e+001
  -1.76330066266097666983e+001
  -1.63194736944200471385e+001
</dep>
<dep S[2,2] frequency>
  -9.96532307605204059620e-001-j6.53806651687662138128e-002
  -9.97940462863628696688e-001-j5.06355196596461193392e-002
  -9.98975948749724618203e-001-j3.58288337545259946704e-002
  -9.99652738259866557868e-001-j2.09584670383984560116e-002
  -9.99971508180221291262e-001-j6.02366785297409404465e-003
  -9.99936780601876629149e-001+j8.97691524375199799424e-003
  -9.99548093219742916915e-001+j2.40471865742516444087e-002
  -9.98811407841314058409e-001+j3.91935099835171857352e-002
  -9.97728752287208808802e-001+j5.44257258274092187156e-002
  -9.96273173199718420356e-001+j6.97498875759823139253e-002
</dep>
<dep S[2,1] frequency>
  +2.65425718337697867655e-002-j1.90076226432595238314e-002
  +1.99217465162494986042e-002-j1.57461994251119133392e-002
  +1.36063655173999219911e-002-j1.19014272690595081933e-002
  +7.61701168446215961388e-003-j7.45195945692864354648e-003
  +2.09219352244321673065e-003-j2.27165711758386696523e-003
  -2.97864991455733989570e-003+j3.55387767818966327296e-003
  -7.60307585045751944952e-003+j9.89484712523922525784e-003
  -1.17912107065762418456e-002+j1.65497037132113604396e-002
  -1.55518291803255631622e-002+j2.34947383044867494362e-002
  -1.88044337065445751889e-002+j3.10088838528666255190e-002
</dep>
<dep S[1,2] frequency>
  +2.64743791917616613785e-002-j1.86551907254335139208e-002
  +1.99335580127000429329e-002-j1.56322532325071129888e-002
  +1.36207161478853252395e-002-j1.19419076046684558001e-002
  +7.63183632756152599552e-003-j7.38996824924325647344e-003
  +2.09930077571824497129e-003-j2.23879216877030879154e-003
  -2.98388372183258686679e-003+j3.54529909219668043149e-003
  -7.61723732897202476105e-003+j9.90351084903404003945e-003
  -1.18264288062262419576e-002+j1.64585886412958494474e-002
  -1.56524585568511495626e-002+j2.32793576915204074307e-002
  -1.88775772675828651392e-002+j3.09677348529363849483e-002
</dep>
<dep S[1,1] frequency>
  -2.11163885611266310960e-002+j1.16860451710072477116e-001
  -1.72010248215449662590e-002+j7.95020261966869479231e-002
  -2.05865973864719498110e-002+j4.43046889259363640967e-002
  -3.18861429774472959764e-002+j1.43817018151705111606e-002
  -4.54263009162169661970e-002-j1.29245648838180737794e-002
  -5.87110852764583246444e-002-j3.82026697712928298145e-002
  -7.02457208427317847388e-002-j6.03442695540521156783e-002
  -7.74576104218474004171e-002-j8.09196267345689002060e-002
  -8.51850776830853639865e-002-j9.99496753154530126473e-002
  -1.00805342350473170487e-001-j1.14785415363403392464e-001
</dep>
<dep _net8.v acfrequency>
  +9.49007881457440520545e-003-j2.66859197327828402690e-002
  +6.95109222365072020045e-003-j2.09917427305303175289e-002
  +4.62654401033727076531e-003-j1.50936338148889830774e-002
  +2.51852439300713970213e-003-j8.98416570220287626081e-003
  +6.70619588195566157865e-004-j2.62321208382321896524e-003
  -9.21940079189270916653e-004+j3.96258465212520789855e-003
  -2.26139821947823806830e-003+j1.07334134908582245344e-002
  -3.35284237732809062282e-003+j1.76275519379156704602e-002
  -4.19968860888306205759e-003+j2.46406142994246013522e-002
  -4.76795794884753501575e-003+j3.18627211955461175918e-002
</dep>
<dep _net5.v acfrequency>
  -7.34074006126400474548e-002+j2.91905238702564392983e-002
  -7.37239478285410532177e-002+j4.00928719173641520679e-002
  -7.36134360640160329003e-002+j5.15135776044222393200e-002
  -7.27190135872440579501e-002+j6.37139496410740607812e-002
  -7.16192669822557914650e-002+j7.59312260634775471058e-002
  -7.03742684242733007594e-002+j8.79352015340358478257e-002
  -6.88213753643125286663e-002+j9.95972693237634071339e-002
  -6.70840982401292446058e-002+j1.10502010633829389485e-001
  -6.51313248048048659689e-002+j1.21383561585829885532e-001
  -6.25854752894196425528e-002+j1.33375400520406278693e-001
</dep>
<dep _net9.v acfrequency>
  +3.22119033113405514937e-003-j8.78232105608636390293e-003
  +2.32168547541599301284e-003-j6.79362764705256604036e-003
  +1.52168111770840681213e-003-j4.80611125541551085366e-003
  +8.16445752229947663628e-004-j2.81608119888984926096e-003
  +2.14416031049585362710e-004-j8.09788204236877064146e-004
  -2.90909928998286503726e-004+j1.20527316557764380481e-003
  -7.04739495126749187180e-004+j3.21818017882902120824e-003
  -1.03266153723521295245e-003+j5.21220123777664696985e-003
  -1.27948712700630385340e-003+j7.18832042710300031518e-003
  -1.43906233997115914729e-003+j9.17481408529527940610e-003
</dep>
<dep _net2.v acfrequency>
  +2.02026286577713515280e-001-j1.35749596287255636096e-001
  +1.93687332526690847434e-001-j1.41065200277090629921e-001
  +1.83296567647567187898e-001-j1.44631933775022786248e-001
  +1.70976691569947325533e-001-j1.44963080482733847054e-001
  +1.58768908721576618159e-001-j1.44347519814177344122e-001
  +1.47624389955757329140e-001-j1.43343907506172540955e-001
  +1.38272843045463084133e-001-j1.41579005092394960563e-001
  +1.31542405221517971770e-001-j1.40150804344115281763e-001
  +1.25147120846532011740e-001-j1.38332790337838129613e-001
  +1.16110252432686855695e-001-j1.33822329443302301399e-001
</dep>
<dep _net1.v acfrequency>
  +3.17922111424302766824e-001+j3.10552302922729034362e-002
  +3.17091868883443650518e-001+j2.01973956204652346780e-002
  +3.14024960954421117343e-001+j1.02340100393159896819e-002
  +3.08557880808657147842e-001+j2.21098028613808672560e-003
  +3.02526565554196880115e-001-j4.79507452605557743519e-003
  +2.96718103796030252539e-001-j1.09596229058680563750e-002
  +2.91605336698737394041e-001-j1.59507684414822298313e-002
  +2.87993673750784440202e-001-j2.03843700713620887277e-002
  +2.84340137201040898951e-001-j2.42452832620176569889e-002
  +2.78380703715647381813e-001-j2.65054778605379667833e-002
</dep>
<dep _net0.v acfrequency>
  +3.01506719222653860046e-002+j3.38037233711123864116e-003
  +2.91680211145088422175e-002+j2.25069491395274694917e-003
  +2.80685530372813581146e-002+j1.26840148851774985397e-003
  +2.68443292375982328624e-002+j5.09426234039641939386e-004
  +2.56590962971848003671e-002-j1.22313913567839249816e-004
  +2.45724965770752236394e-002-j6.51966171850510626921e-004
  +2.36130896590447426908e-002-j1.06108978211463290953e-003
  +2.28346036706317707943e-002-j1.40717697052840763974e-003
  +2.21042080444853149268e-002-j1.69522516458210040918e-003
  +2.12441573119051332896e-002-j1.85243556643639489985e-003
</dep>
<indep _net8.V 1>
  +0.00000000000000000000e+000
</indep>
<indep _net5.V 1>
  +0.00000000000000000000e+000
</indep>
<indep _net9.V 1>
  +0.00000000000000000000e+000
</indep>
<indep _net2.V 1>
  +0.00000000000000000000e+000
</indep>
<indep _net1.V 1>
  +0.00000000000000000000e+000
</indep>
<indep _net0.V 1>
  +0.00000000000000000000e+000
</indep>
