<Qucs Dataset 0.0.19>
<indep frequency 10>
  +5.60000000000000000000e+009
  +5.62222222222222232819e+009
  +5.64444444444444465637e+009
  +5.66666666666666698456e+009
  +5.68888888888888931274e+009
  +5.71111111111111068726e+009
  +5.73333333333333301544e+009
  +5.75555555555555534363e+009
  +5.77777777777777767181e+009
  +5.80000000000000000000e+009
</indep>
<indep acfrequency 10>
  +5.60000000000000000000e+009
  +5.62222222222222232819e+009
  +5.64444444444444465637e+009
  +5.66666666666666698456e+009
  +5.68888888888888931274e+009
  +5.71111111111111068726e+009
  +5.73333333333333301544e+009
  +5.75555555555555534363e+009
  +5.77777777777777767181e+009
  +5.80000000000000000000e+009
</indep>
<dep SWR frequency>
  +1.28467027752288065479e+000
  +1.19012104938610541183e+000
  +1.10865782832134529556e+000
  +1.04629102949698538083e+000
  +1.05641732972287583081e+000
  +1.11878609017329622155e+000
  +1.18246584071446880770e+000
  +1.24339762906009587695e+000
  +1.30391734300235850874e+000
  +1.36603509989807392344e+000
</dep>
<dep ZofS11 frequency>
  +5.12557337274236743951e+001+j1.26524324828820020628e+001
  +5.27390923998184106836e+001+j8.51975342090786114113e+000
  +5.31018580980102967715e+001+j4.31897927260102587610e+000
  +5.22240354222268265971e+001+j6.33676484535846573642e-001
  +5.08860389451119985438e+001-j2.62311787592870748753e+000
  +4.94446778475849910706e+001-j5.55620754792362880892e+000
  +4.80187105755319052491e+001-j7.97971120814087520046e+000
  +4.68439344288204040367e+001-j1.00813977249930299962e+001
  +4.55932720163105429378e+001-j1.19191256460824757113e+001
  +4.37607350417097649142e+001-j1.32542737987906118491e+001
</dep>
<dep dBS21 frequency>
  -2.53400396198908026690e+001
  -2.64439061162223794099e+001
  -2.77042754597671283534e+001
  -2.91843071815851544670e+001
  -3.09965864016289991412e+001
  -3.33389681316980812653e+001
  -3.66381680794239414922e+001
  -4.21279157324703561471e+001
  -6.04763945935197071435e+001
  -4.45278890098904938100e+001
</dep>
<dep dBS11 frequency>
  -1.80896281403828176337e+001
  -2.12287583297781701219e+001
  -2.57589018347203975168e+001
  -3.29094112189343803720e+001
  -3.12339745653971263550e+001
  -2.50264305060467187047e+001
  -2.15553176502179688612e+001
  -1.92917982621462300585e+001
  -1.75942282045146640712e+001
  -1.62099690045278350681e+001
</dep>
<dep S[1,1] frequency>
  +2.75847107752162992722e-002+j1.21508366384061317067e-001
  +3.33083508666605423998e-002+j8.01639793800766331522e-002
  +3.17844064276068885566e-002+j4.05589497336999449395e-002
  +2.17940712320537077762e-002+j6.06379988359387334107e-003
  +9.45222402180773135782e-003-j2.57550361308511999159e-002
  -2.45484949160709731153e-003-j5.60095052018228789503e-002
  -1.34963301490232667756e-002-j8.25088187511685000608e-002
  -2.15193040213186859155e-002-j1.06339570447400527664e-001
  -3.00844614863259862680e-002-j1.28436927239375692222e-001
  -4.56488961400569603910e-002-j1.47815786220939077156e-001
</dep>
<dep S[1,2] frequency>
  +4.61400072366110330924e-002-j2.73658342579352585611e-002
  +3.95544127390469318906e-002-j2.63126095203978262183e-002
  +3.30681520611405405097e-002-j2.47003969447172448681e-002
  +2.66817373174145916481e-002-j2.20754779998569225508e-002
  +2.07065314066701283702e-002-j1.88764435158784715796e-002
  +1.51235024204574037415e-002-j1.53034820507365262876e-002
  +9.90132906386936156862e-003-j1.09254114947906297989e-002
  +5.04661727852643085535e-003-j5.95594441721270743267e-003
  +5.86145469949979802844e-004-j7.38047839861779653506e-004
  -3.48878903540570262792e-003+j4.80500677103928939410e-003
</dep>
<dep S[2,1] frequency>
  +4.62983946385548753022e-002-j2.79389397678337925157e-002
  +3.95489885866790943925e-002-j2.65273767565849701022e-002
  +3.30283414816511800005e-002-j2.46109991562582404445e-002
  +2.66493244359696443424e-002-j2.22807106770755124214e-002
  +2.06653273031209387678e-002-j1.91806433054089037205e-002
  +1.51024562987073455306e-002-j1.53451249558406270512e-002
  +9.88384765643796070478e-003-j1.09165664175935386848e-002
  +5.03589510091813959830e-003-j5.99201090607847253883e-003
  +5.83347979808740988231e-004-j7.45529019246156409752e-004
  -3.47739464517345152686e-003+j4.81268589888477794914e-003
</dep>
<dep S[2,2] frequency>
  -9.89218557992680658231e-001-j1.19351587880204904057e-001
  -9.91760476387736900072e-001-j1.04899874995983063974e-001
  -9.93931574022169916915e-001-j9.03881893954260468016e-002
  -9.95772023705860598319e-001-j7.58189604599712185795e-002
  -9.97268422345229832437e-001-j6.11852085656931221624e-002
  -9.98427356300039758885e-001-j4.64927419580178150071e-002
  -9.99270955728994270117e-001-j3.17424339277082856459e-002
  -9.99794744349591701926e-001-j1.69320731627932291596e-002
  -9.99997000711580374954e-001-j2.05696887902592816591e-003
  -9.99882630254807169834e-001+j1.28877471161501205160e-002
</dep>
<dep _net9.v acfrequency>
  +1.80502292271303953208e-002-j4.65773545135804434292e-002
  +1.51120544539410199547e-002-j4.15609462154479109008e-002
  +1.23634834321905678206e-002-j3.63659364894476436203e-002
  +9.76425983051245824362e-003-j3.10218398506549898619e-002
  +7.39875098654160182760e-003-j2.54139138012380687293e-002
  +5.27312962068563276241e-003-j1.95548505094155812556e-002
  +3.35609110519341502510e-003-j1.34899603797058800780e-002
  +1.65739739344949532987e-003-j7.24923189308167986722e-003
  +1.85419286741908898031e-004-j8.86227649637458042217e-004
  -1.06253316788180876898e-003+j5.59736838987521471284e-003
</dep>
<dep _net2.v acfrequency>
  +3.48044150740336344363e-001+j2.46450940739995072448e-002
  +3.47561580916640078254e-001+j1.14907326808849630240e-002
  +3.44779446982908854835e-001-j9.30472604314669382575e-004
  +3.39282112393771262404e-001-j1.13963332512395654206e-002
  +3.33171663217296187831e-001-j2.08005831105885219401e-002
  +3.27348884060746025959e-001-j2.95531890787199547077e-002
  +3.21920303466048884911e-001-j3.68094282527302307795e-002
  +3.17586555045468899028e-001-j4.29786877202832789946e-002
  +3.13213696557865184378e-001-j4.85007666225139924543e-002
  +3.06713429620375788165e-001-j5.30821132885724439321e-002
</dep>
<dep _net1.v acfrequency>
  +3.39541568893931167139e-001+j2.97704826214097474646e-002
  +3.39268994977713678196e-001+j1.70292983876745122884e-002
  +3.36735945708181438896e-001+j5.01491472071546179334e-003
  +3.31557162660300330792e-001-j5.06333720089161692934e-003
  +3.25764801871801901179e-001-j1.41137131027077988160e-002
  +3.20233945830945498923e-001-j2.25511466468601567970e-002
  +3.15090926854819430858e-001-j2.95464979001723027086e-002
  +3.11018645087896949963e-001-j3.55109597993529188531e-002
  +3.06899579441702319293e-001-j4.08487137945831510488e-002
  +3.00689065606567107469e-001-j4.52239793017731664393e-002
</dep>
<dep _net11.v acfrequency>
  +3.39541568893931167139e-001+j2.97704826214097474646e-002
  +3.39268994977713678196e-001+j1.70292983876745122884e-002
  +3.36735945708181438896e-001+j5.01491472071546179334e-003
  +3.31557162660300330792e-001-j5.06333720089161692934e-003
  +3.25764801871801901179e-001-j1.41137131027077988160e-002
  +3.20233945830945498923e-001-j2.25511466468601567970e-002
  +3.15090926854819430858e-001-j2.95464979001723027086e-002
  +3.11018645087896949963e-001-j3.55109597993529188531e-002
  +3.06899579441702319293e-001-j4.08487137945831510488e-002
  +3.00689065606567107469e-001-j4.52239793017731664393e-002
</dep>
<dep _net10.v acfrequency>
  +6.11311065834160231175e-003-j1.53237348933397306283e-002
  +5.03485741507346193369e-003-j1.34463306723032454543e-002
  +4.05472179937099806019e-003-j1.15760597073650325223e-002
  +3.15472007985689731693e-003-j9.72079922222775921758e-003
  +2.35625616687540947319e-003-j7.84291459530217678620e-003
  +1.65608006621745370776e-003-j5.94605275803614542057e-003
  +1.04007654473370651435e-003-j4.04344623818238789459e-003
  +5.07161922135658635620e-004-j2.14285903247726393014e-003
  +5.60581919287669918077e-005-j2.58462455487321138975e-004
  -3.17641311235828684677e-004+j1.61129562590876448946e-003
</dep>
<dep _net3.v acfrequency>
  +2.41011394186445349064e-001-j1.51860753604658310634e-001
  +2.32399995893122907065e-001-j1.59933801789453516884e-001
  +2.21682226106720753345e-001-j1.66513322698141674749e-001
  +2.08699010155148245715e-001-j1.69759881980425436643e-001
  +1.95852815100947791338e-001-j1.72013574526075130322e-001
  +1.84140207758562657325e-001-j1.74206379442911257760e-001
  +1.73971256002976915056e-001-j1.75080875461769536194e-001
  +1.66072256070197293853e-001-j1.75401801382784022776e-001
  +1.58574850874793782385e-001-j1.75276484763787709920e-001
  +1.48529825261775855205e-001-j1.73539614408502934628e-001
</dep>
<dep _net6.v acfrequency>
  -2.66257508145535705391e-002-j2.27849503809014614086e-002
  -2.85025750364949065352e-002-j1.51184549631346656917e-002
  -3.01277007872752765338e-002-j7.14884836120199818055e-003
  -3.13136397726316850765e-002+j1.27624984042658956573e-003
  -3.23046272128739431206e-002+j9.79773446527914398940e-003
  -3.31800696046034848674e-002+j1.82806372961347649020e-002
  -3.37674568778119701951e-002+j2.67106460435047321500e-002
  -3.40635800443150546513e-002+j3.49168705497080872346e-002
  -3.41457400276940908901e-002+j4.31328118953539854652e-002
  -3.39973413147438840998e-002+j5.18321197772207628574e-002
</dep>
<dep _net0.v acfrequency>
  +3.22055946785409705213e-002+j3.28767576797250448556e-003
  +3.12136584987997046936e-002+j1.98638750703611756745e-003
  +3.01052374650301046710e-002+j8.27260582556461638443e-004
  +2.88528953815195554622e-002-j9.98553559047122077375e-005
  +2.76384822682985871467e-002-j8.90705610185427891848e-004
  +2.65291702490496744682e-002-j1.59130826725186456418e-003
  +2.55245673882225042328e-002-j2.14292169699644482334e-003
  +2.46699697639313278441e-002-j2.58913734015755537046e-003
  +2.38676641952666780677e-002-j2.97008395378340348328e-003
  +2.29566422376988703291e-002-j3.26630281986249257353e-003
</dep>
<indep _net9.V 1>
  +0.00000000000000000000e+000
</indep>
<indep _net2.V 1>
  +0.00000000000000000000e+000
</indep>
<indep _net1.V 1>
  +0.00000000000000000000e+000
</indep>
<indep _net11.V 1>
  +0.00000000000000000000e+000
</indep>
<indep _net10.V 1>
  +0.00000000000000000000e+000
</indep>
<indep _net3.V 1>
  +0.00000000000000000000e+000
</indep>
<indep _net6.V 1>
  +0.00000000000000000000e+000
</indep>
<indep _net0.V 1>
  +0.00000000000000000000e+000
</indep>
