<Qucs Dataset 0.0.19>
<indep frequency 10>
  +5.60000000000000000000e+009
  +5.62222222222222232819e+009
  +5.64444444444444465637e+009
  +5.66666666666666698456e+009
  +5.68888888888888931274e+009
  +5.71111111111111068726e+009
  +5.73333333333333301544e+009
  +5.75555555555555534363e+009
  +5.77777777777777767181e+009
  +5.80000000000000000000e+009
</indep>
<indep acfrequency 10>
  +5.60000000000000000000e+009
  +5.62222222222222232819e+009
  +5.64444444444444465637e+009
  +5.66666666666666698456e+009
  +5.68888888888888931274e+009
  +5.71111111111111068726e+009
  +5.73333333333333301544e+009
  +5.75555555555555534363e+009
  +5.77777777777777767181e+009
  +5.80000000000000000000e+009
</indep>
<dep SWR frequency>
  +2.16326168023311238287e+000
  +2.00977916302365855472e+000
  +1.87688031449569825426e+000
  +1.76052574954504970073e+000
  +1.66119361038080692872e+000
  +1.58218602351150550156e+000
  +1.51948476926958297994e+000
  +1.47171806126647797264e+000
  +1.43913201658008360617e+000
  +1.41640819850589649853e+000
</dep>
<dep ZofS11 frequency>
  +4.23416257061551348784e+001+j3.55758341317997235365e+001
  +4.72242071016597719790e+001+j3.44999454441531270277e+001
  +5.19795278026314591102e+001+j3.25703607338041152275e+001
  +5.60527383119215656393e+001+j2.97344375882203664219e+001
  +5.96757535236211182905e+001+j2.62987527512066989743e+001
  +6.31226110568187621652e+001+j2.24479997718064261392e+001
  +6.59323750449075589586e+001+j1.82111900559794293031e+001
  +6.81420380549861164354e+001+j1.36384287749530468403e+001
  +6.96935433785145477259e+001+j8.89352100860920380399e+000
  +7.03402848335529711221e+001+j4.10164015733257691920e+000
</dep>
<dep dBS21 frequency>
  -5.65944845085735970258e+000
  -5.58533393862485105785e+000
  -5.51193100797245172373e+000
  -5.41246042000356641921e+000
  -5.32746429407757204899e+000
  -5.28654092869883296402e+000
  -5.26067980066508589232e+000
  -5.24976071903617835801e+000
  -5.25671331168878008810e+000
  -5.26221305173785758313e+000
</dep>
<dep dBS11 frequency>
  -8.68915396765477865415e+000
  -9.48616453004885862299e+000
  -1.03196294802719528150e+001
  -1.11975575940931211250e+001
  -1.20949564803758473630e+001
  -1.29385150189862265790e+001
  -1.37147783655308845852e+001
  -1.43863285221281795856e+001
  -1.48928040948439761593e+001
  -1.52730205794036333344e+001
</dep>
<dep S[1,1] frequency>
  +5.70279945952815725541e-002+j3.63292452333040305490e-001
  +8.64784271866593512446e-002+j3.24162524577474020493e-001
  +1.10176947613324999198e-001+j2.84192900574901874400e-001
  +1.25793915305113579439e-001+j2.45104715619403834559e-001
  +1.37796028546612631116e-001+j2.06744775740041464296e-001
  +1.49494839750354741037e-001+j1.68773859309300278131e-001
  +1.58200070540147980092e-001+j1.32233800080134189514e-001
  +1.64693053467960759395e-001+j9.64286250944688672071e-002
  +1.69120210315339664087e-001+j6.17363865803621791883e-002
  +1.69987297363612122059e-001+j2.82898900973877487353e-002
</dep>
<dep S[1,2] frequency>
  +4.16104335746328879431e-001+j3.06969890531937572575e-001
  +4.35826083722408386123e-001+j2.91684009197182514406e-001
  +4.55138894025267137788e-001+j2.74007132879969472761e-001
  +4.69729270306102786314e-001+j2.55291291805997855313e-001
  +4.83462464229328370280e-001+j2.36395085256192544199e-001
  +4.98893310332565953491e-001+j2.16179526278665545824e-001
  +5.09448459242995643770e-001+j1.97503324835385379865e-001
  +5.14081035373317618564e-001+j1.80837652452886354926e-001
  +5.18103543293222168487e-001+j1.64445237323238235838e-001
  +5.26291465256033763609e-001+j1.44096530386016552505e-001
</dep>
<dep S[2,1] frequency>
  +4.21787020062130035836e-001+j3.06225631287025290561e-001
  +4.37992266287227871580e-001+j2.90718620423939644315e-001
  +4.53879935641162080007e-001+j2.73967313781567023412e-001
  +4.72483141490979086097e-001+j2.53646515125610039210e-001
  +4.88604044956791772059e-001+j2.33509287143607635606e-001
  +4.99681607351697587571e-001+j2.15302651480912765614e-001
  +5.08910344690206351004e-001+j1.97015951066672939662e-001
  +5.16166241029235139948e-001+j1.79240403853224289366e-001
  +5.21561647101099867818e-001+j1.61401942572579254476e-001
  +5.26582095473558609022e-001+j1.42867774122040158691e-001
</dep>
<dep S[2,2] frequency>
  +1.99248468132306177925e-001-j5.44984217558802108705e-001
  +2.04322838042977961148e-001-j5.52535777897755209231e-001
  +2.07633507187884258638e-001-j5.58430638257066958019e-001
  +2.12513485477550112535e-001-j5.65715422415293156533e-001
  +2.15169473155780693885e-001-j5.73132791607253389010e-001
  +2.13592411849416186076e-001-j5.78007978368288988236e-001
  +2.13426985360292253979e-001-j5.85653423475546830446e-001
  +2.17180683987197753471e-001-j5.96991790399458710503e-001
  +2.19537935752079693685e-001-j6.09001123203720240440e-001
  +2.16244641626625322406e-001-j6.17035958701376063829e-001
</dep>
<dep _net5.v acfrequency>
  +5.12616431065740840722e-001-j7.55020943540624239754e-002
  +5.19345636538050992037e-001-j8.27938548128233503531e-002
  +5.25416684232774655605e-001-j8.99552016126102249594e-002
  +5.32842719092165184591e-001-j9.86848533955322487765e-002
  +5.38780493431387230707e-001-j1.07398382103348344341e-001
  +5.41784815666657149080e-001-j1.14697495244001815284e-001
  +5.44650886209274487371e-001-j1.22897959690288882673e-001
  +5.48132425830102132380e-001-j1.32104587717952165482e-001
  +5.50584031498509429703e-001-j1.41543288961952812288e-001
  +5.51130205627606062357e-001-j1.49945145725783018920e-001
</dep>
<dep _net2.v acfrequency>
  +5.20236975028068315829e-001+j4.33037570817811356960e-002
  +5.26435550784063788221e-001+j2.44516801307184117320e-002
  +5.30768024230534929409e-001+j5.11017923630707748828e-003
  +5.30590275214842699292e-001-j1.24426810687299216340e-002
  +5.29708782550831092095e-001-j2.93714031891917359829e-002
  +5.30490216817829929319e-001-j4.72160212898902198475e-002
  +5.29107488283948712571e-001-j6.29252244579830977145e-002
  +5.25266879961701182999e-001-j7.67022812158503208835e-002
  +5.21191612038005458452e-001-j8.99222307504785600685e-002
  +5.17855611163089424309e-001-j1.04828251148054718556e-001
</dep>
<dep _net1.v acfrequency>
  +4.65845345871105986912e-001+j2.11955563329403823269e-001
  +4.81394954682129339041e-001+j1.94747773584772604361e-001
  +4.94996331712138637471e-001+j1.76518349569958210576e-001
  +5.04548732613903649913e-001+j1.58239111551879751971e-001
  +5.12686951306361327063e-001+j1.40133128275851337463e-001
  +5.21266102229350103414e-001+j1.21732949145100882715e-001
  +5.27356769074587505841e-001+j1.04272034384849526800e-001
  +5.30874979761230103570e-001+j8.76792955406046903288e-002
  +5.33546998374179404223e-001+j7.15249096410960905068e-002
  +5.36410443645016665748e-001+j5.45133726411062904949e-002
</dep>
<dep _net0.v acfrequency>
  +4.39535196032488986728e-002+j2.07608922499724207755e-002
  +4.40791603229944498055e-002+j1.85233261548166452948e-002
  +4.40639169291455051747e-002+j1.63411155504692359730e-002
  +4.37365198633334478773e-002+j1.42863069151039911997e-002
  +4.33447280319162048245e-002+j1.23652674262778542597e-002
  +4.30469717183529568261e-002+j1.05258598929946992767e-002
  +4.25984136415676409304e-002+j8.85474003620565809636e-003
  +4.20018365122960118940e-002+j7.33095234241374228007e-003
  +4.13997500374334026496e-002+j5.90935865795451722993e-003
  +4.08712577538522942033e-002+j4.48212494920549424371e-003
</dep>
<indep _net5.V 1>
  +0.00000000000000000000e+000
</indep>
<indep _net2.V 1>
  +0.00000000000000000000e+000
</indep>
<indep _net1.V 1>
  +0.00000000000000000000e+000
</indep>
<indep _net0.V 1>
  +0.00000000000000000000e+000
</indep>
