<Qucs Dataset 0.0.19>
<indep SSw 1>
  +1.54999999999999994553e-003
</indep>
<indep SSl 1>
  +1.50399999999999995498e-002
</indep>
<indep Sw 1>
  +8.59999999999999978871e-004
</indep>
<indep Sl 1>
  +7.00000000000000014572e-003
</indep>
<indep Gl 1>
  +1.72999999999999994060e-002
</indep>
<indep Gw 1>
  +1.54999999999999994553e-003
</indep>
<indep frequency 10>
  +5.60000000000000000000e+009
  +5.62222222222222232819e+009
  +5.64444444444444465637e+009
  +5.66666666666666698456e+009
  +5.68888888888888931274e+009
  +5.71111111111111068726e+009
  +5.73333333333333301544e+009
  +5.75555555555555534363e+009
  +5.77777777777777767181e+009
  +5.80000000000000000000e+009
</indep>
<indep acfrequency 100>
  +5.60000000000000000000e+009
  +5.60202020202020168304e+009
  +5.60404040404040431976e+009
  +5.60606060606060600281e+009
  +5.60808080808080768585e+009
  +5.61010101010101032257e+009
  +5.61212121212121200562e+009
  +5.61414141414141368866e+009
  +5.61616161616161632538e+009
  +5.61818181818181800842e+009
  +5.62020202020202064514e+009
  +5.62222222222222232819e+009
  +5.62424242424242401123e+009
  +5.62626262626262664795e+009
  +5.62828282828282833099e+009
  +5.63030303030303001404e+009
  +5.63232323232323265076e+009
  +5.63434343434343433380e+009
  +5.63636363636363601685e+009
  +5.63838383838383865356e+009
  +5.64040404040404033661e+009
  +5.64242424242424201965e+009
  +5.64444444444444465637e+009
  +5.64646464646464633942e+009
  +5.64848484848484802246e+009
  +5.65050505050505065918e+009
  +5.65252525252525234222e+009
  +5.65454545454545497894e+009
  +5.65656565656565666199e+009
  +5.65858585858585834503e+009
  +5.66060606060606098175e+009
  +5.66262626262626266479e+009
  +5.66464646464646434784e+009
  +5.66666666666666698456e+009
  +5.66868686868686866760e+009
  +5.67070707070707035065e+009
  +5.67272727272727298737e+009
  +5.67474747474747467041e+009
  +5.67676767676767635345e+009
  +5.67878787878787899017e+009
  +5.68080808080808067322e+009
  +5.68282828282828235626e+009
  +5.68484848484848499298e+009
  +5.68686868686868667603e+009
  +5.68888888888888931274e+009
  +5.69090909090909099579e+009
  +5.69292929292929267883e+009
  +5.69494949494949531555e+009
  +5.69696969696969699860e+009
  +5.69898989898989868164e+009
  +5.70101010101010131836e+009
  +5.70303030303030300140e+009
  +5.70505050505050468445e+009
  +5.70707070707070732117e+009
  +5.70909090909090900421e+009
  +5.71111111111111068726e+009
  +5.71313131313131332397e+009
  +5.71515151515151500702e+009
  +5.71717171717171764374e+009
  +5.71919191919191932678e+009
  +5.72121212121212100983e+009
  +5.72323232323232364655e+009
  +5.72525252525252532959e+009
  +5.72727272727272701263e+009
  +5.72929292929292964935e+009
  +5.73131313131313133240e+009
  +5.73333333333333301544e+009
  +5.73535353535353565216e+009
  +5.73737373737373733521e+009
  +5.73939393939393901825e+009
  +5.74141414141414165497e+009
  +5.74343434343434333801e+009
  +5.74545454545454502106e+009
  +5.74747474747474765778e+009
  +5.74949494949494934082e+009
  +5.75151515151515197754e+009
  +5.75353535353535366058e+009
  +5.75555555555555534363e+009
  +5.75757575757575798035e+009
  +5.75959595959595966339e+009
  +5.76161616161616134644e+009
  +5.76363636363636398315e+009
  +5.76565656565656566620e+009
  +5.76767676767676734924e+009
  +5.76969696969696998596e+009
  +5.77171717171717166901e+009
  +5.77373737373737335205e+009
  +5.77575757575757598877e+009
  +5.77777777777777767181e+009
  +5.77979797979797935486e+009
  +5.78181818181818199158e+009
  +5.78383838383838367462e+009
  +5.78585858585858631134e+009
  +5.78787878787878799438e+009
  +5.78989898989898967743e+009
  +5.79191919191919231415e+009
  +5.79393939393939399719e+009
  +5.79595959595959568024e+009
  +5.79797979797979831696e+009
  +5.80000000000000000000e+009
</indep>
<dep SWR frequency>
  +2.26848201996192599950e+000
  +1.90957984882482167954e+000
  +1.59701508105241196667e+000
  +1.32366745795545526221e+000
  +1.10607833176276670883e+000
  +1.07459321456362411062e+000
  +1.25771004659449903151e+000
  +1.46463272668590915870e+000
  +1.69311441116438166077e+000
  +1.95279721875422729305e+000
</dep>
<dep ZofS11 frequency>
  +5.14536201643868480460e+001-j4.26931331748421314387e+001
  +5.00692598346979167445e+001-j3.29337774338971129851e+001
  +4.93512686406492520064e+001-j2.34584304660255646979e+001
  +5.00136785722408561128e+001-j1.40682082066278173471e+001
  +5.08962633387911154159e+001-j5.00861210474176932195e+000
  +5.12135697582380799986e+001+j3.43310542755559833239e+000
  +5.18467903154164844182e+001+j1.15533587531781005708e+001
  +5.25442601509730380371e+001+j1.95133808025581103607e+001
  +5.33888223781056012740e+001+j2.73120543919662317478e+001
  +5.47771836627098949180e+001+j3.53613917364704164470e+001
</dep>
<dep dBS21 frequency>
  -1.64223101895561640617e+000
  -1.35987545620499750143e+000
  -1.12286251941487114081e+000
  -9.46982274860177386522e-001
  -8.44981733995795014636e-001
  -8.14497986245852567677e-001
  -8.51040376841196488655e-001
  -9.34526773528870369212e-001
  -1.06547644562056609274e+000
  -1.23160050093731388010e+000
</dep>
<dep dBS11 frequency>
  -8.22123569047850288882e+000
  -1.00997889991372140628e+001
  -1.27697833948159384931e+001
  -1.71214987794860782344e+001
  -2.59569567749610286000e+001
  -2.88846725961150561091e+001
  -1.88507363219070853688e+001
  -1.44928482927664248336e+001
  -1.17889975024252926517e+001
  -9.82466284735876982381e+000
</dep>
<dep S[1,1] frequency>
  +1.62615825642755451597e-001-j3.52383227098371665242e-001
  +9.83525174347785746676e-002-j2.96741052783727421449e-001
  +4.66219131166204503458e-002-j2.25107881006320370565e-001
  +1.95362569028895149970e-002-j1.37914815991661721117e-001
  +1.13193736411231204997e-002-j4.90792977761437543283e-002
  +1.31256138603426109057e-002+j3.34742052816084378897e-002
  +3.06074766297034228657e-002+j1.09966544458203946411e-001
  +5.88900122951265814208e-002+j1.79085962882162552656e-001
  +9.58719538339458665632e-002+j2.38842012184662721985e-001
  +1.43185280980472118273e-001+j2.89167544552034416760e-001
</dep>
<dep S[1,2] frequency>
  -7.64618649875436817709e-001+j2.99395435045595015300e-001
  -7.62092576418345712952e-001+j3.83216037384306373870e-001
  -7.42550849402364709917e-001+j4.73279735388338507196e-001
  -6.98593090926360127391e-001+j5.57797325256496945300e-001
  -6.41616168754592375301e-001+j6.33481660575379468270e-001
  -5.78439208136130700311e-001+j7.02321156650440592273e-001
  -5.08876652529870687758e-001+j7.51753724390439748149e-001
  -4.38348148853533570168e-001+j7.81022353634374000286e-001
  -3.68590107560540058973e-001+j7.99843283133887195113e-001
  -2.93401970626777808260e-001+j8.16768742202743536218e-001
</dep>
<dep S[2,1] frequency>
  -7.68427300663984458318e-001+j3.07661595866591308646e-001
  -7.62461680826959975477e-001+j3.87055856597536163122e-001
  -7.41562662947384709788e-001+j4.71440644214587034622e-001
  -6.97848693850946388828e-001+j5.63109094551682010099e-001
  -6.39901575452943238709e-001+j6.43210131230875448161e-001
  -5.77393666775300129501e-001+j7.03994524050900571943e-001
  -5.07887703618746244594e-001+j7.51063100679815409677e-001
  -4.36352940664390731573e-001+j7.84850416324157307280e-001
  -3.64393222338647626568e-001+j8.06014851920963448784e-001
  -2.91489375680792639489e-001+j8.17381138397649364968e-001
</dep>
<dep S[2,2] frequency>
  -2.41494064801153818234e-001-j2.64330963451927136720e-001
  -1.97261134254834269441e-001-j2.18427403970430256130e-001
  -1.42663440884713860202e-001-j1.74237598768946733152e-001
  -7.13109316322416419975e-002-j1.40450731874417367173e-001
  +1.73165743439560038119e-003-j1.21621743606719623365e-001
  +6.79553909548808038332e-002-j1.14067570767115822328e-001
  +1.31308145413183030570e-001-j1.25047909878956753360e-001
  +1.90231584685139565316e-001-j1.52942432812500750394e-001
  +2.40926690001964344257e-001-j1.88410066164209299977e-001
  +2.84399592586112082149e-001-j2.22938652437576989573e-001
</dep>
<dep Pr1.v acfrequency>
  +0.00000000000000000000e+000
  +0.00000000000000000000e+000
  +0.00000000000000000000e+000
  +0.00000000000000000000e+000
  +0.00000000000000000000e+000
  +0.00000000000000000000e+000
  +0.00000000000000000000e+000
  +0.00000000000000000000e+000
  +0.00000000000000000000e+000
  +0.00000000000000000000e+000
  +0.00000000000000000000e+000
  +0.00000000000000000000e+000
  +0.00000000000000000000e+000
  +0.00000000000000000000e+000
  +0.00000000000000000000e+000
  +0.00000000000000000000e+000
  +0.00000000000000000000e+000
  +0.00000000000000000000e+000
  +0.00000000000000000000e+000
  +0.00000000000000000000e+000
  +0.00000000000000000000e+000
  +0.00000000000000000000e+000
  +0.00000000000000000000e+000
  +0.00000000000000000000e+000
  +0.00000000000000000000e+000
  +0.00000000000000000000e+000
  +0.00000000000000000000e+000
  +0.00000000000000000000e+000
  +0.00000000000000000000e+000
  +0.00000000000000000000e+000
  +0.00000000000000000000e+000
  +0.00000000000000000000e+000
  +0.00000000000000000000e+000
  +0.00000000000000000000e+000
  +0.00000000000000000000e+000
  +0.00000000000000000000e+000
  +0.00000000000000000000e+000
  +0.00000000000000000000e+000
  +0.00000000000000000000e+000
  +0.00000000000000000000e+000
  +0.00000000000000000000e+000
  +0.00000000000000000000e+000
  +0.00000000000000000000e+000
  +0.00000000000000000000e+000
  +0.00000000000000000000e+000
  +0.00000000000000000000e+000
  +0.00000000000000000000e+000
  +0.00000000000000000000e+000
  +0.00000000000000000000e+000
  +0.00000000000000000000e+000
  +0.00000000000000000000e+000
  +0.00000000000000000000e+000
  +0.00000000000000000000e+000
  +0.00000000000000000000e+000
  +0.00000000000000000000e+000
  +0.00000000000000000000e+000
  +0.00000000000000000000e+000
  +0.00000000000000000000e+000
  +0.00000000000000000000e+000
  +0.00000000000000000000e+000
  +0.00000000000000000000e+000
  +0.00000000000000000000e+000
  +0.00000000000000000000e+000
  +0.00000000000000000000e+000
  +0.00000000000000000000e+000
  +0.00000000000000000000e+000
  +0.00000000000000000000e+000
  +0.00000000000000000000e+000
  +0.00000000000000000000e+000
  +0.00000000000000000000e+000
  +0.00000000000000000000e+000
  +0.00000000000000000000e+000
  +0.00000000000000000000e+000
  +0.00000000000000000000e+000
  +0.00000000000000000000e+000
  +0.00000000000000000000e+000
  +0.00000000000000000000e+000
  +0.00000000000000000000e+000
  +0.00000000000000000000e+000
  +0.00000000000000000000e+000
  +0.00000000000000000000e+000
  +0.00000000000000000000e+000
  +0.00000000000000000000e+000
  +0.00000000000000000000e+000
  +0.00000000000000000000e+000
  +0.00000000000000000000e+000
  +0.00000000000000000000e+000
  +0.00000000000000000000e+000
  +0.00000000000000000000e+000
  +0.00000000000000000000e+000
  +0.00000000000000000000e+000
  +0.00000000000000000000e+000
  +0.00000000000000000000e+000
  +0.00000000000000000000e+000
  +0.00000000000000000000e+000
  +0.00000000000000000000e+000
  +0.00000000000000000000e+000
  +0.00000000000000000000e+000
  +0.00000000000000000000e+000
  +0.00000000000000000000e+000
</dep>
<dep _net4.v acfrequency>
  -3.28550294912395290936e-002+j7.16969320664738951621e-001
  -2.70700384848866493215e-002+j7.20593782176885633284e-001
  -2.12083400623825912845e-002+j7.24144852670625005508e-001
  -1.52711222459311901645e-002+j7.27620434619207667737e-001
  -9.25964364971965103734e-003+j7.31018450100725081242e-001
  -3.18371862824562423810e-003+j7.34342161072580768000e-001
  +2.80237394698840125429e-003+j7.37689715434944659478e-001
  +8.85845368549914580214e-003+j7.40962200523876735048e-001
  +1.49832817945854679387e-002+j7.44157759005174668232e-001
  +2.11755586718287980297e-002+j7.47274556273012091623e-001
  +2.74563175505418421984e-002+j7.50305680522201479121e-001
  +3.40040751029164201036e-002+j7.53205396340853372550e-001
  +4.06163413278949336771e-002+j7.56015247844945337263e-001
  +4.72914071853443584992e-002+j7.58733435048590365568e-001
  +5.40275011331948773474e-002+j7.61358198270026154120e-001
  +6.08547752287797449888e-002+j7.63856470682405364059e-001
  +6.79181100308698382229e-002+j7.66074634726634950965e-001
  +7.50321847518268802979e-002+j7.68184601376962428176e-001
  +8.21945997072812128970e-002+j7.70184891157438489273e-001
  +8.94029006278765914217e-002+j7.72074094531168930722e-001
  +9.67193015601242045420e-002+j7.73768862489733755261e-001
  +1.04329182953984689330e-001+j7.75012576839576916576e-001
  +1.11966439138547813048e-001+j7.76126114712789916261e-001
  +1.19627789751466095947e-001+j7.77108705418099843243e-001
  +1.27309926414992169441e-001+j7.77959688545276306648e-001
  +1.34970548662832423581e-001+j7.78613023898826250857e-001
  +1.42522008145256451339e-001+j7.78937627385535069635e-001
  +1.50074009238845063052e-001+j7.79130135741664453519e-001
  +1.57623164251893599364e-001+j7.79190721341119330035e-001
  +1.65166098453186527273e-001+j7.79119671873606645107e-001
  +1.72710727988210799300e-001+j7.78825222085542723249e-001
  +1.80261803598261216575e-001+j7.78183564799403315604e-001
  +1.87785922173509145505e-001+j7.77409941361217549094e-001
  +1.95279757057175928914e-001+j7.76505518807662054037e-001
  +2.02740038281095213968e-001+j7.75471573099575040011e-001
  +2.10218507613164629078e-001+j7.74436380101112820107e-001
  +2.17767252109541897820e-001+j7.73507621755892715854e-001
  +2.25284917259391037625e-001+j7.72449632988677636902e-001
  +2.32768302358448087030e-001+j7.71263653172338026209e-001
  +2.40214264204263505675e-001+j7.69951024634595082574e-001
  +2.47610325276431175734e-001+j7.68568587421260884796e-001
  +2.54952988017535131515e-001+j7.67148566568727985349e-001
  +2.62255351009857085032e-001+j7.65610581524012068222e-001
  +2.69514710058751716382e-001+j7.63956102438974826718e-001
  +2.76728423892538155648e-001+j7.62186678450868182466e-001
  +2.83969845262670217423e-001+j7.60465982055984257570e-001
  +2.91262787440303871911e-001+j7.58830060650212634421e-001
  +2.98515511941622180281e-001+j7.57081610237141156006e-001
  +3.05725534973892654200e-001+j7.55222000606577958948e-001
  +3.12890428249613439249e-001+j7.53252671587033351130e-001
  +3.19916224478348887317e-001+j7.51269643597860081741e-001
  +3.26804917122884730496e-001+j7.49279052237737497322e-001
  +3.33647449974461718369e-001+j7.47189350615466985062e-001
  +3.40441822210086120215e-001+j7.45001999448945961824e-001
  +3.47186087967996770409e-001+j7.42718509643276236787e-001
  +3.53792194081088529067e-001+j7.40312332872510747706e-001
  +3.60271687497927595167e-001+j7.37792539261039936882e-001
  +3.66692712826526490133e-001+j7.35184534841283765516e-001
  +3.73053658767687368325e-001+j7.32490095475758939969e-001
  +3.79352977855586970257e-001+j7.29711030452566355997e-001
  +3.85486018525555640402e-001+j7.26812450371360552204e-001
  +3.91483724735847582465e-001+j7.23810053292947341852e-001
  +3.97413060576521925960e-001+j7.20730678652119260974e-001
  +4.03272792693016635113e-001+j7.17576313602770410327e-001
  +4.09061755832082596385e-001+j7.14348963478959708695e-001
  +4.14639858538604744176e-001+j7.11133274242353952133e-001
  +4.20073063422937709177e-001+j7.07896112258051934951e-001
  +4.25435914348914367977e-001+j7.04595538379991559452e-001
  +4.30727579218603051636e-001+j7.01233465608384953782e-001
  +4.35947286682289436577e-001+j6.97811811942186777102e-001
  +4.41052961056105474746e-001+j6.94413794842711484812e-001
  +4.46069142960465958581e-001+j6.90993779273789465734e-001
  +4.51013168274150277881e-001+j6.87518616353754219439e-001
  +4.55884420652507449390e-001+j6.83990189575132578881e-001
  +4.60682341130899675186e-001+j6.80410381047874213145e-001
  +4.65334388112985108954e-001+j6.76817198256739693818e-001
  +4.69889417386875840599e-001+j6.73189684750761685450e-001
  +4.74371253139551085631e-001+j6.69517790958818803659e-001
  +4.78779577892591512445e-001+j6.65803317354574319964e-001
  +4.83114124943473610685e-001+j6.62048054146385456242e-001
  +4.87464067863352612520e-001+j6.58273178582671980585e-001
  +4.91763447104871298521e-001+j6.54464836360039381447e-001
  +4.95989902952328587382e-001+j6.50619773520008770618e-001
  +5.00143327425094819105e-001+j6.46739687526985518318e-001
  +5.04223656751691784450e-001+j6.42826260025913809315e-001
  +5.08319728179168817128e-001+j6.38834386466400783178e-001
  +5.12356788271205121355e-001+j6.34803450015999026768e-001
  +5.16319094707970771552e-001+j6.30743323276570899694e-001
  +5.20206757120232787805e-001+j6.26655670185828572727e-001
  +5.24019925224153970689e-001+j6.22542132317994489910e-001
  +5.28046319681390596834e-001+j6.17999576146808005106e-001
  +5.32022356230077209105e-001+j6.13386941289048803760e-001
  +5.35915963598229017073e-001+j6.08750875048262196643e-001
  +5.39727494277284836066e-001+j6.04093157631272914543e-001
  +5.43457340451983461627e-001+j5.99415537496867156797e-001
  +5.47248363504776680344e-001+j5.94592084637697082528e-001
  +5.50963106010900371956e-001+j5.89744998871782666328e-001
  +5.54594540682863512693e-001+j5.84882716808459379720e-001
  +5.58143248750407217074e-001+j5.80006931599221120521e-001
  +5.61609844476561925752e-001+j5.75119298814626200844e-001
</dep>
<dep _net0.v acfrequency>
  +3.97316038148011335673e-002-j6.88963948812364779251e-001
  +3.41770919610700635305e-002-j6.91234047308927235242e-001
  +2.85658822795215247559e-002-j6.93427459285042568915e-001
  +2.28993496966335419174e-002-j6.95542503077464902006e-001
  +1.71789288411000294621e-002-j6.97577525184587377005e-001
  +1.14141441158372158871e-002-j6.99536016475089894584e-001
  +5.75086416184208276681e-003-j7.01512606505103497589e-001
  +3.77104929140410077837e-005-j7.03412407700103381458e-001
  -5.72394101203055512272e-003-j7.05233973549414749904e-001
  -1.15326643833046429966e-002-j7.06975886864492752970e-001
  -1.74080560412207437093e-002-j7.08631730259029146701e-001
  -2.35174871974416464793e-002-j7.10156879521203654448e-001
  -2.96698868939627956320e-002-j7.11592792552066866207e-001
  -3.58634697898122245530e-002-j7.12938139167256124118e-001
  -4.20964014510330358787e-002-j7.14191634328525171149e-001
  -4.83963449076107513069e-002-j7.15322291675048238524e-001
  -5.48963745870263142290e-002-j7.16185049744517243653e-001
  -6.14247178635280027814e-002-j7.16943703994311065664e-001
  -6.79790094770218455977e-002-j7.17597304390599433077e-001
  -7.45568462662463959933e-002-j7.18144971577380775152e-001
  -8.12146744302482126443e-002-j7.18508696785534972662e-001
  -8.81199746801517996841e-002-j7.18448034670709390070e-001
  -9.50298295525737052314e-002-j7.18265998452104481586e-001
  -1.01941163811294643882e-001-j7.17962393640248719429e-001
  -1.08850893787541896929e-001-j7.17537129434338227796e-001
  -1.15718795267221466472e-001-j7.16930486920296039521e-001
  -1.22461727745604653794e-001-j7.16024060313787513721e-001
  -1.29184562582523781993e-001-j7.14998097671502241823e-001
  -1.35884256139656572904e-001-j7.13853277911929873234e-001
  -1.42557794315798957996e-001-j7.12590382446481429568e-001
  -1.49210634129196662023e-001-j7.11125583594068855220e-001
  -1.55844433130121251541e-001-j7.09346206507685428377e-001
  -1.62433011991085590742e-001-j7.07450916393632667223e-001
  -1.68973517273089818280e-001-j7.05441292793406615758e-001
  -1.75463164105145841276e-001-j7.03319005800451479971e-001
  -1.81952210520800711224e-001-j7.01200103402757179971e-001
  -1.88490756346806342947e-001-j6.99181195346233907983e-001
  -1.94981225990121076475e-001-j6.97050100077389211961e-001
  -2.01420906716625908173e-001-j6.94808428986754322843e-001
  -2.07807153610363781748e-001-j6.92457878019725470153e-001
  -2.14130303721762504932e-001-j6.90050601874220403964e-001
  -2.20388331907164836121e-001-j6.87616038614670688212e-001
  -2.26591284753626720505e-001-j6.85081381124762689439e-001
  -2.32736950025796390795e-001-j6.82448379109186098468e-001
  -2.38823184639229912918e-001-j6.79718843749329670878e-001
  -2.44920755195909278790e-001-j6.77038314361283144471e-001
  -2.51052284267971048681e-001-j6.74438220500774732180e-001
