<Qucs Dataset 0.0.19>
<indep SWR_band 1>
  +2.49821368924145570389e+000
</indep>
<indep Gw 1>
  +2.18000000000000008007e-003
</indep>
<indep SSw 1>
  +1.25000000000000002602e-003
</indep>
<indep Sw 1>
  +3.91000000000000028089e-003
</indep>
<indep SSl 1>
  +1.80999999999999997696e-003
</indep>
<indep Sl 1>
  +7.23000000000000031530e-003
</indep>
<indep Gl 1>
  +8.89000000000000033251e-003
</indep>
<indep frequency 10>
  +5.60000000000000000000e+009
  +5.64444444444444465637e+009
  +5.68888888888888931274e+009
  +5.73333333333333301544e+009
  +5.77777777777777767181e+009
  +5.82222222222222232819e+009
  +5.86666666666666698456e+009
  +5.91111111111111068726e+009
  +5.95555555555555534363e+009
  +6.00000000000000000000e+009
</indep>
<dep ZofS11 frequency>
  +2.50266306292051616822e+001-j3.41204858856698312053e+000
  +2.43997585218313766120e+001-j2.99245026003420111493e+000
  +2.33727038136701104065e+001-j2.21893661983160184192e+000
  +2.25193846167324345231e+001-j1.35286318056709542468e+000
  +2.20528753216401014470e+001-j6.35144365138652466918e-001
  +2.14915337409717430717e+001+j2.63427835283271349898e-001
  +2.09239530542200569130e+001+j1.31744943205128794972e+000
  +2.06193124683955630871e+001+j2.28163851139243600841e+000
  +2.05604515126542288783e+001+j3.03219044191327702364e+000
  +2.01890925345656242484e+001+j4.27837337367532999366e+000
</dep>
<dep dBS11 frequency>
  -9.48341632956937630183e+000
  -9.21463079581027244558e+000
  -8.77806425585939997802e+000
  -8.41955159922000184736e+000
  -8.22437857493597945790e+000
  -7.98530338714993881410e+000
  -7.73774262551713931657e+000
  -7.59564926053557520902e+000
  -7.55478761329188319706e+000
  -7.36545148035750241178e+000
</dep>
<dep SWR frequency>
  +2.01026011669535042969e+000
  +2.05882091459393334887e+000
  +2.14463504003661808994e+000
  +2.22234797441728915146e+000
  +2.26773223569878590311e+000
  +2.32657673492562944162e+000
  +2.39161671043025192418e+000
  +2.43099220665836313060e+000
  +2.44260718082257843875e+000
  +2.49821368924145570389e+000
</dep>
<dep S[1,1] frequency>
  -3.30109092044106100516e-001-j6.04904793416455172084e-002
  -3.41919496616954088353e-001-j5.39736610222740081921e-002
  -3.61659317107456246276e-001-j4.11792882832498347012e-002
  -3.78461924487403345019e-001-j2.57154744667039691919e-002
  -3.87761831533179446296e-001-j1.22330872087774902152e-002
  -3.98748034258333161617e-001+j5.15402520396949365145e-003
  -4.09474551208675319192e-001+j2.61817251720450269725e-002
  -4.14566614873649430528e-001+j4.57032156305709619248e-002
  -4.14612163712638759350e-001+j6.07900515071742725270e-002
  -4.19448821300114793598e-001+j8.65224470505091686201e-002
</dep>
