<Qucs Dataset 0.0.19>
<indep SSl 1>
  +1.45000000000000007355e-002
</indep>
<indep SSw 1>
  +1.54999999999999994553e-003
</indep>
<indep Gl 1>
  +1.77000000000000004552e-002
</indep>
<indep Gw 1>
  +1.54999999999999994553e-003
</indep>
<indep Sl 1>
  +1.32999999999999993228e-002
</indep>
<indep Sw 1>
  +1.54999999999999994553e-003
</indep>
<indep frequency 10>
  +5.60000000000000000000e+009
  +5.64444444444444465637e+009
  +5.68888888888888931274e+009
  +5.73333333333333301544e+009
  +5.77777777777777767181e+009
  +5.82222222222222232819e+009
  +5.86666666666666698456e+009
  +5.91111111111111068726e+009
  +5.95555555555555534363e+009
  +6.00000000000000000000e+009
</indep>
<dep SWR frequency>
  +1.77222614167284353570e+000
  +1.50290923878011550840e+000
  +1.26857673710475737927e+000
  +1.09382111020560235382e+000
  +1.07919314878897920629e+000
  +1.20820950725505071865e+000
  +1.35328894176185499099e+000
  +1.49533709502499534416e+000
  +1.63404892705287507759e+000
  +1.78091501240138905260e+000
</dep>
<dep ZofS11 frequency>
  +4.01786857425678434197e+001+j2.40733151407667342880e+001
  +4.78117758450231065126e+001+j1.99377254986940357639e+001
  +5.25897565925745809068e+001+j1.19503296649538839347e+001
  +5.32124754850089516367e+001+j3.33032548662421534758e+000
  +5.11686810629966473130e+001-j3.67452125185621181203e+000
  +4.67384881741357887108e+001-j8.55643791243867468665e+000
  +4.15458772486052652084e+001-j1.09597194604712679933e+001
  +3.70881413058032975982e+001-j1.17285926906860105134e+001
  +3.34666387350147189750e+001-j1.17614045673410565485e+001
  +2.98753726310575267178e+001-j1.03199701052181076477e+001
</dep>
<dep dBS11 frequency>
  -1.11016831022134070395e+001
  -1.39391097481246362122e+001
  -1.85337016198015511748e+001
  -2.69727801273499281365e+001
  -2.83841444840150458617e+001
  -2.05107943799790035655e+001
  -1.64709042034100079377e+001
  -1.40445673982836432003e+001
  -1.23700213137617165415e+001
  -1.10316788949548758580e+001
</dep>
<dep S[1,1] frequency>
  -3.51421665191605780976e-002+j2.76332521204053327413e-001
  +1.84129587913313130798e-002+j2.00084425536881882479e-001
  +3.82933285584273752633e-002+j1.12025919023811426634e-001
  +3.21325609802784462055e-002+j3.12298836424018885771e-002
  +1.28540459196884726545e-002-j3.58538704749279818484e-002
  -2.56904911620212672574e-002-j9.07214612369040829254e-002
  -7.69136400962615596200e-002-j1.28926301580552793435e-001
  -1.27806543175158549008e-001-j1.51887310722873036806e-001
  -1.74757443147768809499e-001-j1.65536767345105112481e-001
  -2.31394823804600607842e-001-j1.59097320623235838344e-001
</dep>
