<Qucs Dataset 0.0.19>
<indep SWR_band 1>
  +1.45705141989306330430e+000
</indep>
<indep frequency 10>
  +5.60000000000000000000e+009
  +5.64444444444444465637e+009
  +5.68888888888888931274e+009
  +5.73333333333333301544e+009
  +5.77777777777777767181e+009
  +5.82222222222222232819e+009
  +5.86666666666666698456e+009
  +5.91111111111111068726e+009
  +5.95555555555555534363e+009
  +6.00000000000000000000e+009
</indep>
<dep ZofS11 frequency>
  +4.44893323169860721578e+001+j1.69868210364369396359e+001
  +4.58452965046873899269e+001+j1.50995020039155001257e+001
  +4.78217591407088136179e+001+j1.21739782828285054705e+001
  +4.91407175077455349310e+001+j8.62273632358866670700e+000
  +4.92805540736641205513e+001+j5.26148201380503177660e+000
  +4.89142097905484831699e+001+j1.29475629005495584956e+000
  +4.76399365979768347756e+001-j2.99862953027790357652e+000
  +4.52757787195260092972e+001-j6.51600421783586636337e+000
  +4.23748892919478237218e+001-j8.90349417909414064809e+000
  +3.86054403436968058827e+001-j1.17808206779231507966e+001
</dep>
<dep dBS11 frequency>
  -1.46089836557613068635e+001
  -1.58416819849507461981e+001
  -1.80299486839427132168e+001
  -2.12019521262634214054e+001
  -2.54468507033533768436e+001
  -3.53493482564465963947e+001
  -2.81645296566387273174e+001
  -2.14857361617121114250e+001
  -1.79709117684189614295e+001
  -1.47338674554163731045e+001
</dep>
<dep SWR frequency>
  +1.45705141989306330430e+000
  +1.38494033438533037383e+000
  +1.28691449763139598161e+000
  +1.19076475498026512767e+000
  +1.11285674411823487517e+000
  +1.03475723241947692443e+000
  +1.08130343959946206844e+000
  +1.18406848794066599240e+000
  +1.28915416565973983687e+000
  +1.44906212757229790888e+000
</dep>
<dep S[1,1] frequency>
  -2.51874374426187541687e-002+j1.84303085878728040159e-001
  -1.80803184038224595831e-002+j1.60388734434491975200e-001
  -6.67609212895931003473e-003+j1.25281460802523614273e-001
  -1.09442044085017453625e-003+j8.70699087063079024684e-002
  -4.42557852649339000806e-003+j5.32306368042796129725e-002
  -1.08038991557954933143e-002+j1.32311091522170319601e-002
  -2.32060282770605863512e-002-j3.14237792327031958961e-002
  -4.46983087154186331524e-002-j7.14479448758425228494e-002
  -7.25810577706704207479e-002-j1.03380034094397943445e-001
  -1.08994199345233078180e-001-j1.47449882813798976988e-001
</dep>
