<Qucs Dataset 0.0.19>
<indep SSl 1>
  +1.52999999999999993644e-002
</indep>
<indep SSw 1>
  +5.59999999999999950942e-004
</indep>
<indep Gl 1>
  +3.20000000000000006661e-002
</indep>
<indep Gw 1>
  +8.00000000000000038337e-004
</indep>
<indep Sl 1>
  +2.00000000000000004163e-002
</indep>
<indep Sw 1>
  +2.00000000000000004163e-003
</indep>
<indep frequency 10>
  +5.60000000000000000000e+009
  +5.62222222222222232819e+009
  +5.64444444444444465637e+009
  +5.66666666666666698456e+009
  +5.68888888888888931274e+009
  +5.71111111111111068726e+009
  +5.73333333333333301544e+009
  +5.75555555555555534363e+009
  +5.77777777777777767181e+009
  +5.80000000000000000000e+009
</indep>
<indep acfrequency 100>
  +5.60000000000000000000e+009
  +5.60202020202020168304e+009
  +5.60404040404040431976e+009
  +5.60606060606060600281e+009
  +5.60808080808080768585e+009
  +5.61010101010101032257e+009
  +5.61212121212121200562e+009
  +5.61414141414141368866e+009
  +5.61616161616161632538e+009
  +5.61818181818181800842e+009
  +5.62020202020202064514e+009
  +5.62222222222222232819e+009
  +5.62424242424242401123e+009
  +5.62626262626262664795e+009
  +5.62828282828282833099e+009
  +5.63030303030303001404e+009
  +5.63232323232323265076e+009
  +5.63434343434343433380e+009
  +5.63636363636363601685e+009
  +5.63838383838383865356e+009
  +5.64040404040404033661e+009
  +5.64242424242424201965e+009
  +5.64444444444444465637e+009
  +5.64646464646464633942e+009
  +5.64848484848484802246e+009
  +5.65050505050505065918e+009
  +5.65252525252525234222e+009
  +5.65454545454545497894e+009
  +5.65656565656565666199e+009
  +5.65858585858585834503e+009
  +5.66060606060606098175e+009
  +5.66262626262626266479e+009
  +5.66464646464646434784e+009
  +5.66666666666666698456e+009
  +5.66868686868686866760e+009
  +5.67070707070707035065e+009
  +5.67272727272727298737e+009
  +5.67474747474747467041e+009
  +5.67676767676767635345e+009
  +5.67878787878787899017e+009
  +5.68080808080808067322e+009
  +5.68282828282828235626e+009
  +5.68484848484848499298e+009
  +5.68686868686868667603e+009
  +5.68888888888888931274e+009
  +5.69090909090909099579e+009
  +5.69292929292929267883e+009
  +5.69494949494949531555e+009
  +5.69696969696969699860e+009
  +5.69898989898989868164e+009
  +5.70101010101010131836e+009
  +5.70303030303030300140e+009
  +5.70505050505050468445e+009
  +5.70707070707070732117e+009
  +5.70909090909090900421e+009
  +5.71111111111111068726e+009
  +5.71313131313131332397e+009
  +5.71515151515151500702e+009
  +5.71717171717171764374e+009
  +5.71919191919191932678e+009
  +5.72121212121212100983e+009
  +5.72323232323232364655e+009
  +5.72525252525252532959e+009
  +5.72727272727272701263e+009
  +5.72929292929292964935e+009
  +5.73131313131313133240e+009
  +5.73333333333333301544e+009
  +5.73535353535353565216e+009
  +5.73737373737373733521e+009
  +5.73939393939393901825e+009
  +5.74141414141414165497e+009
  +5.74343434343434333801e+009
  +5.74545454545454502106e+009
  +5.74747474747474765778e+009
  +5.74949494949494934082e+009
  +5.75151515151515197754e+009
  +5.75353535353535366058e+009
  +5.75555555555555534363e+009
  +5.75757575757575798035e+009
  +5.75959595959595966339e+009
  +5.76161616161616134644e+009
  +5.76363636363636398315e+009
  +5.76565656565656566620e+009
  +5.76767676767676734924e+009
  +5.76969696969696998596e+009
  +5.77171717171717166901e+009
  +5.77373737373737335205e+009
  +5.77575757575757598877e+009
  +5.77777777777777767181e+009
  +5.77979797979797935486e+009
  +5.78181818181818199158e+009
  +5.78383838383838367462e+009
  +5.78585858585858631134e+009
  +5.78787878787878799438e+009
  +5.78989898989898967743e+009
  +5.79191919191919231415e+009
  +5.79393939393939399719e+009
  +5.79595959595959568024e+009
  +5.79797979797979831696e+009
  +5.80000000000000000000e+009
</indep>
<dep SWR frequency>
  +1.61423117630890322616e+000
  +1.43770572998943180210e+000
  +1.33799262793211659606e+000
  +1.29948320809655260000e+000
  +1.33532779144979429908e+000
  +1.41003775012727516902e+000
  +1.49667771962540485653e+000
  +1.59487701889373045816e+000
  +1.68749924219929758884e+000
  +1.75914346236929852729e+000
</dep>
<dep ZofS11 frequency>
  +4.71131384264562953490e+001-j2.32858934266136508029e+001
  +4.19280243694871828097e+001-j1.46357847501692255321e+001
  +3.91690755034001441004e+001-j7.06439120324776670401e+000
  +3.84770725402935411807e+001-j7.94617768838592752889e-002
  +3.87664483603411440527e+001+j6.08512663758470662145e+000
  +3.94957680458892141928e+001+j1.11862485407434402163e+001
  +4.06514359038603245722e+001+j1.57359917540212936871e+001
  +4.17945245625864387762e+001+j1.99084973053995319958e+001
  +4.34715125572001426235e+001+j2.37945417227194582210e+001
  +4.66172924394305070450e+001+j2.74254086991043486421e+001
</dep>
<dep dBS21 frequency>
  -1.68018234260442489436e+000
  -1.47514981184891036392e+000
  -1.34064346083295071743e+000
  -1.24022551846763251504e+000
  -1.17897352615606876292e+000
  -1.17625544161083372963e+000
  -1.18806063123497929190e+000
  -1.20416912548987897758e+000
  -1.23032789936189579372e+000
  -1.26311640538665903577e+000
</dep>
<dep dBS11 frequency>
  -1.25802426716847080002e+001
  -1.49159809236756206730e+001
  -1.67987181917124459574e+001
  -1.77051553161894972277e+001
  -1.68575659815520815243e+001
  -1.53840000681253350479e+001
  -1.40257561427780643726e+001
  -1.27937917616881300376e+001
  -1.18415225333216174164e+001
  -1.12090085203558231797e+001
</dep>
<dep S[1,1] frequency>
  +2.62584516313919269503e-002-j2.33484802239693922665e-001
  -6.09159301872852221305e-002-j1.68907548038207511176e-001
  -1.14470004648411449732e-001-j8.82935261207404287198e-002
  -1.30235398499551235929e-001-j1.01507102894832224038e-003
  -1.21282431198569545794e-001+j7.68662677889744849757e-002
  -1.00183128866961401737e-001+j1.37514009752150390131e-001
  -7.08585661528144949983e-002+j1.85888082176381336241e-001
  -4.04495431146367767639e-002+j2.25653839640283238044e-001
  -4.73469723484809534853e-003+j2.55769924114455926567e-001
  +4.21654317057916228073e-002+j2.71887193672570692815e-001
</dep>
<dep S[1,2] frequency>
  +6.34162604400759111201e-001+j5.15994670846643299633e-001
  +7.20208217263570094069e-001+j4.35752396281294807068e-001
  +7.88602711202838979609e-001+j3.39938398263882612937e-001
  +8.31030268827267049048e-001+j2.37442515354591654475e-001
  +8.56801411319020989055e-001+j1.36690301554176107945e-001
  +8.71954668475250604942e-001+j3.71229228941911751360e-002
  +8.71795883502771817852e-001-j5.02857041359676196213e-002
  +8.59685633262582737935e-001-j1.21643171028111118925e-001
  +8.43391313688281352157e-001-j1.88175245978217275944e-001
  +8.23166727644937812336e-001-j2.64851697105806305199e-001
</dep>
<dep S[2,1] frequency>
  +6.43193258772099762943e-001+j5.15245133975587910058e-001
  +7.23610816878695550791e-001+j4.34045647628208297597e-001
  +7.86577493416561912554e-001+j3.40148343787761708867e-001
  +8.34796394943055353188e-001+j2.33877840098402789426e-001
  +8.63369187504632318308e-001+j1.29818327134860023175e-001
  +8.72631855217018803650e-001+j3.53555608653043293432e-002
  +8.70690342674867778783e-001-j5.06380125659748048239e-002
  +8.61461790679193928355e-001-j1.25432415730168583812e-001
  +8.45710554176777318247e-001-j1.95121359340094391310e-001
  +8.22487599449947981434e-001-j2.66733895902560469438e-001
</dep>
<dep S[2,2] frequency>
  +2.76298585359156578800e-001+j1.22205110794188831491e-001
  +2.33392034489854183210e-001+j1.44001723868399711392e-001
  +1.95790527694810312376e-001+j1.68472857136804765599e-001
  +1.67136067354646089544e-001+j1.98880657957014761461e-001
  +1.48353704451310131063e-001+j2.26674684792053410254e-001
  +1.34499114285860477125e-001+j2.48293593718106608836e-001
  +1.32077461294447362494e-001+j2.69275756518317810340e-001
  +1.41472208885853933946e-001+j2.91210912635447072283e-001
  +1.53399199683951437123e-001+j3.08940187758186213252e-001
  +1.57406867395028071677e-001+j3.20465597282079572850e-001
</dep>
<dep Pr1.v acfrequency>
  +0.00000000000000000000e+000
  +0.00000000000000000000e+000
  +0.00000000000000000000e+000
  +0.00000000000000000000e+000
  +0.00000000000000000000e+000
  +0.00000000000000000000e+000
  +0.00000000000000000000e+000
  +0.00000000000000000000e+000
  +0.00000000000000000000e+000
  +0.00000000000000000000e+000
  +0.00000000000000000000e+000
  +0.00000000000000000000e+000
  +0.00000000000000000000e+000
  +0.00000000000000000000e+000
  +0.00000000000000000000e+000
  +0.00000000000000000000e+000
  +0.00000000000000000000e+000
  +0.00000000000000000000e+000
  +0.00000000000000000000e+000
  +0.00000000000000000000e+000
  +0.00000000000000000000e+000
  +0.00000000000000000000e+000
  +0.00000000000000000000e+000
  +0.00000000000000000000e+000
  +0.00000000000000000000e+000
  +0.00000000000000000000e+000
  +0.00000000000000000000e+000
  +0.00000000000000000000e+000
  +0.00000000000000000000e+000
  +0.00000000000000000000e+000
  +0.00000000000000000000e+000
  +0.00000000000000000000e+000
  +0.00000000000000000000e+000
  +0.00000000000000000000e+000
  +0.00000000000000000000e+000
  +0.00000000000000000000e+000
  +0.00000000000000000000e+000
  +0.00000000000000000000e+000
  +0.00000000000000000000e+000
  +0.00000000000000000000e+000
  +0.00000000000000000000e+000
  +0.00000000000000000000e+000
  +0.00000000000000000000e+000
  +0.00000000000000000000e+000
  +0.00000000000000000000e+000
  +0.00000000000000000000e+000
  +0.00000000000000000000e+000
  +0.00000000000000000000e+000
  +0.00000000000000000000e+000
  +0.00000000000000000000e+000
  +0.00000000000000000000e+000
  +0.00000000000000000000e+000
  +0.00000000000000000000e+000
  +0.00000000000000000000e+000
  +0.00000000000000000000e+000
  +0.00000000000000000000e+000
  +0.00000000000000000000e+000
  +0.00000000000000000000e+000
  +0.00000000000000000000e+000
  +0.00000000000000000000e+000
  +0.00000000000000000000e+000
  +0.00000000000000000000e+000
  +0.00000000000000000000e+000
  +0.00000000000000000000e+000
  +0.00000000000000000000e+000
  +0.00000000000000000000e+000
  +0.00000000000000000000e+000
  +0.00000000000000000000e+000
  +0.00000000000000000000e+000
  +0.00000000000000000000e+000
  +0.00000000000000000000e+000
  +0.00000000000000000000e+000
  +0.00000000000000000000e+000
  +0.00000000000000000000e+000
  +0.00000000000000000000e+000
  +0.00000000000000000000e+000
  +0.00000000000000000000e+000
  +0.00000000000000000000e+000
  +0.00000000000000000000e+000
  +0.00000000000000000000e+000
  +0.00000000000000000000e+000
  +0.00000000000000000000e+000
  +0.00000000000000000000e+000
  +0.00000000000000000000e+000
  +0.00000000000000000000e+000
  +0.00000000000000000000e+000
  +0.00000000000000000000e+000
  +0.00000000000000000000e+000
  +0.00000000000000000000e+000
  +0.00000000000000000000e+000
  +0.00000000000000000000e+000
  +0.00000000000000000000e+000
  +0.00000000000000000000e+000
  +0.00000000000000000000e+000
  +0.00000000000000000000e+000
  +0.00000000000000000000e+000
  +0.00000000000000000000e+000
  +0.00000000000000000000e+000
  +0.00000000000000000000e+000
  +0.00000000000000000000e+000
</dep>
<dep _net11.v acfrequency>
  -1.04770579576352454443e-001+j4.22671621864357666132e-002
  -1.04433291949333567628e-001+j4.27620146824719826739e-002
  -1.04089170413513565361e-001+j4.32351572574932244142e-002
  -1.03738992036974675415e-001+j4.36867117345282468532e-002
  -1.03383513700794585355e-001+j4.41168248515611538529e-002
  -1.03027697941180843011e-001+j4.45223458701708638130e-002
  -1.02749437810666852111e-001+j4.48447026505719784084e-002
  -1.02470064196130902778e-001+j4.51481509327618657501e-002
  -1.02190161473342269738e-001+j4.54329653891242246644e-002
  -1.01910292203947788758e-001+j4.56994339887432238223e-002
  -1.01637774292630475581e-001+j4.59433049863750483932e-002
  -1.01428212864122541115e-001+j4.61290183457011768176e-002
  -1.01221800651004417704e-001+j4.62983291006217670405e-002
  -1.01018981446142602776e-001+j4.64515998061605511760e-002
  -1.00820177607777755613e-001+j4.65891990770478173212e-002
  -1.00622661427753695706e-001+j4.66972855034680986441e-002
  -1.00413907852405295817e-001+j4.67091710843109686468e-002
  -1.00213279068689417595e-001+j4.67053305052671438591e-002
  -1.00021135473873271082e-001+j4.66862581101690835017e-002
  -9.98378136454985409820e-002+j4.66524485484943601810e-002
  -9.96583383676428041786e-002+j4.65827381444237631491e-002
  -9.94693186326165434963e-002+j4.64118899747976224046e-002
  -9.92936417957269862322e-002+j4.62266250779479956345e-002
  -9.91315616437968838426e-002+j4.60275706825562652691e-002
  -9.89833062129665403051e-002+j4.58153476522157113160e-002
  -9.88366917517381898817e-002+j4.55962158973925307803e-002
  -9.86670371398899737070e-002+j4.53816358772601430305e-002
  -9.85116204680954593575e-002+j4.51550192849914447391e-002
  -9.83705917745881924796e-002+j4.49169750198470454916e-002
  -9.82440791291581266842e-002+j4.46681021688565202399e-002
  -9.81369833440168815031e-002+j4.43917204515048152702e-002
  -9.80569086979001247606e-002+j4.40656516041166013142e-002
  -9.79933175042620591144e-002+j4.37309394546394891723e-002
  -9.79462244659152631021e-002+j4.33881864558668811638e-002
  -9.79156265775053963329e-002+j4.30379810672323337428e-002
  -9.78848939681612045804e-002+j4.26751034670074247401e-002
  -9.78397217868761798210e-002+j4.22940834063709539259e-002
  -9.78109310671526899217e-002+j4.19057221507090071899e-002
  -9.77985067788868511762e-002+j4.15105616938548360739e-002
  -9.78024197345481183241e-002+j4.11091312330089664329e-002
  -9.78808842634564801877e-002+j4.07014624548084069655e-002
  -9.80628891285762888108e-002+j4.02898222551598267360e-002
  -9.82608971004816089678e-002+j3.98762518906741678104e-002
  -9.84747715928001310370e-002+j3.94611838364767042453e-002
  -9.87043684665777354414e-002+j3.90450374797140023486e-002
  -9.89816189216793235195e-002+j3.86441025707991228644e-002
  -9.93126850087401730205e-002+j3.82630301433541583633e-002
  -9.96578836298837866803e-002+j3.78830279026903041228e-002
  -1.00017046119487459932e-001+j3.75044209897650096530e-002
  -1.00390000185250821696e-001+j3.71275237524790399646e-002
  -1.00789060041520481259e-001+j3.67842112086377848179e-002
  -1.01212806209190889217e-001+j3.64752341514730515915e-002
  -1.01648157343181611001e-001+j3.61694185302907852964e-002
  -1.02094934886434132726e-001+j3.58669924863951258831e-002
  -1.02552959421315315058e-001+j3.55681756790987083083e-002
  -1.02967954553632848325e-001+j3.52674770299435530463e-002
  -1.03349761001620549239e-001+j3.49647825388794755708e-002
  -1.03742537284817262777e-001+j3.46645808913700337328e-002
  -1.04146130786508070432e-001+j3.43670843859472663340e-002
  -1.04560387965791840026e-001+j3.40724980342758249074e-002
  -1.04887779619576654300e-001+j3.38234236478590841180e-002
  -1.05159603113636659910e-001+j3.36037665320877282360e-002
  -1.05440418063147092753e-001+j3.33849086692583896241e-002
  -1.05730125304643735040e-001+j3.31670340947307629165e-002
  -1.06028624368576809833e-001+j3.29503213715022155728e-002
  -1.06235483515854031711e-001+j3.27811689862466393297e-002
  -1.06395824483653242409e-001+j3.26363091241764005646e-002
  -1.06563386410468211030e-001+j3.24905685220751930253e-002
  -1.06738118724642921942e-001+j3.23441060505314167961e-002
  -1.06919969240737447458e-001+j3.21970766674845032540e-002
  -1.06977918144825365210e-001+j3.21006095905803090496e-002
  -1.06985653868532079591e-001+j3.20232845122543213767e-002
  -1.06999105056138618663e-001+j3.19429694157269614130e-002
  -1.07018268585465953224e-001+j3.18598075623583165683e-002
  -1.07043139304912451881e-001+j3.17739394835123839522e-002
  -1.07030049476776634165e-001+j3.17004105238813324585e-002
  -1.07007776778559965392e-001+j3.16287640869470990101e-002
  -1.06990830151507704260e-001+j3.15540701784773960914e-002
  -1.06979210015411829726e-001+j3.14764589241791001295e-002
  -1.06972915032375423539e-001+j3.13960581046296358099e-002
  -1.07065095703634940993e-001+j3.12875039992592252069e-002
  -1.07186223916611075846e-001+j3.11714694952318245591e-002
  -1.07313019204736903589e-001+j3.10545993149345771200e-002
  -1.07445448873888058094e-001+j3.09370037305256515014e-002
  -1.07583479378367055657e-001+j3.08187906541745743061e-002
  -1.07824609919717748219e-001+j3.06564126872866590801e-002
  -1.08089185215822267128e-001+j3.04873487792828856691e-002
  -1.08359989823788818719e-001+j3.03195183718369953851e-002
  -1.08636961668410497728e-001+j3.01530193062914224356e-002
  -1.08920038481091524529e-001+j2.99879470136393232182e-002
  -1.09524512293677114827e-001+j2.98106026749847298485e-002
  -1.10170311326303296817e-001+j2.96381944320300537432e-002
  -1.10822280222332203437e-001+j2.94725657499956654461e-002
  -1.11480285979301915744e-001+j2.93137683217826357229e-002
  -1.12144197089781363919e-001+j2.91618514016065144556e-002
  -1.12983397211198585697e-001+j2.89349570751785863110e-002
  -1.13838433658390913994e-001+j2.87136167906403838579e-002
  -1.14700236531913107862e-001+j2.85022531386008998178e-002
  -1.15568626677059443919e-001+j2.83009009195571668849e-002
  -1.16443427310479713510e-001+j2.81095922731958436369e-002
</dep>
<dep _net12.v acfrequency>
  -9.07963468677152607533e-002+j6.63083567305955967619e-002
  -9.00434446416035760841e-002+j6.68455290593464035442e-002
  -8.92849487195346569468e-002+j6.73528328523910480019e-002
  -8.85218264741956251118e-002+j6.78305385952483186340e-002
  -8.77550159465243229118e-002+j6.82789450922732243932e-002
  -8.69905164807979469632e-002+j6.86934062264430711497e-002
  -8.63222302446935429998e-002+j6.89861612829956172277e-002
  -8.56554478898465532222e-002+j6.92533116900033440810e-002
  -8.49908705889629023655e-002+j6.94952967631819185090e-002
  -8.43291697785192029269e-002+j6.97125691314191830994e-002
  -8.36791827868778037569e-002+j6.98987038004631466848e-002
  -8.31081281544145122897e-002+j6.99997796912415481962e-002
  -8.25436558139984732918e-002+j7.00788994214042448849e-002
  -8.19862787974691697990e-002+j7.01365901463827656759e-002
  -8.14364820315296444875e-002+j7.01733833594716249760e-002
  -8.08886918163808643634e-002+j7.01718793700263354651e-002
  -8.03173539466404684539e-002+j7.00479787152626931501e-002
  -7.97586637321253955069e-002+j6.99032519746404512606e-002
  -7.92130196341417902595e-002+j6.97383774768707276337e-002
  -7.86807897858707028238e-002+j6.95540305826223559382e-002
  -7.81525264462183122394e-002+j6.93238574204529389711e-002
  -7.76019571788009732138e-002+j6.89664383299793126714e-002
  -7.70703680982157135482e-002+j6.85899934574042968727e-002
  -7.65580178916921150201e-002+j6.81953542631338893720e-002
  -7.60651331714246037308e-002+j6.77833408892199451579e-002
  -7.55769357787193230003e-002+j6.73636524809655690138e-002
  -7.50635881091082646233e-002+j6.69542592976815342798e-002
  -7.45701331383959442611e-002+j6.65289276068405099895e-002
  -7.40967022898886551463e-002+j6.60884545271535617239e-002
  -7.36434000658094389813e-002+j6.56336219840784329538e-002
  -7.32139848570200479916e-002+j6.51427359297660768522e-002
  -7.28148455797212879048e-002+j6.45869210136984228665e-002
  -7.24381625220048841474e-002+j6.40195379353586113691e-002
  -7.20838990983208027785e-002+j6.34413617596885082150e-002
  -7.17519976267597670017e-002+j6.28531475748935475334e-002
  -7.14207634506020816456e-002+j6.22506379173096702218e-002
  -7.10714962925819426776e-002+j6.16289712186258720195e-002
  -7.07442411236545443121e-002+j6.09974990203859257498e-002
  -7.04389287718464873755e-002+j6.03569099872993397593e-002
  -7.01554735567898601900e-002+j5.97078748311577200969e-002
  -6.99662683927134709805e-002+j5.90425058857141915603e-002
  -6.99072897648216340372e-002+j5.83596971069594017134e-002
  -6.98695419204673762170e-002+j5.76739105731952361733e-002
  -6.98528123319752947129e-002+j5.69856834177684401510e-002
  -6.98568804498022888350e-002+j5.62955351816900040340e-002
  -6.99233859475481278611e-002+j5.56192722519849025442e-002
  -7.00603370541858505582e-002+j5.49617227147091158557e-002
