<Qucs Dataset 0.0.19>
<indep SSl 1>
  +1.00000000000000004792e-004
</indep>
<indep SSw 1>
  +1.54999999999999994553e-003
</indep>
<indep Gl 1>
  +1.75000000000000016653e-002
</indep>
<indep Gw 1>
  +1.54999999999999994553e-003
</indep>
<indep Sl 1>
  +1.32999999999999993228e-002
</indep>
<indep Sw 1>
  +1.54999999999999994553e-003
</indep>
<indep frequency 10>
  +5.60000000000000000000e+009
  +5.64444444444444465637e+009
  +5.68888888888888931274e+009
  +5.73333333333333301544e+009
  +5.77777777777777767181e+009
  +5.82222222222222232819e+009
  +5.86666666666666698456e+009
  +5.91111111111111068726e+009
  +5.95555555555555534363e+009
  +6.00000000000000000000e+009
</indep>
<dep SWR frequency>
  +1.48600630960454349605e+000
  +1.32870408551465679636e+000
  +1.18989502518042300494e+000
  +1.08075912041131871888e+000
  +1.01422088415764211078e+000
  +1.09375079730332602779e+000
  +1.17767208219229835287e+000
  +1.25489288375058549718e+000
  +1.32993779854305493870e+000
  +1.40858276195988940671e+000
</dep>
<dep ZofS11 frequency>
  +3.98045867320649406906e+001+j1.45740322716062280506e+001
  +4.43391287995895453378e+001+j1.21750165176287321600e+001
  +4.72422125248726487712e+001+j7.99869172070821754517e+000
  +4.86560449343787837506e+001+j3.58817056810381540544e+000
  +4.94458021203453554904e+001-j4.31084960308152131958e-001
  +4.87008923700145288649e+001-j4.22847026163910122420e+000
  +4.68499041623933294431e+001-j7.27098473080795226764e+000
  +4.50254940000873986605e+001-j9.58180533458696181981e+000
  +4.34641834334290990682e+001-j1.16260939501317963618e+001
  +4.07206856869127520326e+001-j1.24578235678453328461e+001
</dep>
<dep dBS11 frequency>
  -1.41772063803156420647e+001
  -1.70061840616372954571e+001
  -2.12381941928450075352e+001
  -2.82206045347886345098e+001
  -4.30236099174145323332e+001
  -2.69790003977912284938e+001
  -2.17674658298340126805e+001
  -1.89353641052840195869e+001
  -1.69782450934460911185e+001
  -1.54096306789350752098e+001
</dep>
<dep S[1,1] frequency>
  -8.49546746703461197470e-002+j1.76073016059322157156e-001
  -4.26399502828801457710e-002+j1.34558785714469053563e-001
  -2.14489189202541341572e-002+j8.40196330251535977718e-002
  -1.22835699180091073579e-002+j3.68172686688469502636e-002
  -5.55396799529722651201e-003-j4.35894912744912328695e-003
  -1.13059418048474524809e-002-j4.33256174048519612785e-002
  -2.67386176202663583545e-002-j7.70821703522823475918e-002
  -4.17571017053783855033e-002-j1.05044586818514903981e-001
  -5.36257166208394253637e-002-j1.31061451774558079819e-001
  -8.18834043816227263868e-002-j1.48564932801322824307e-001
</dep>
