<Qucs Dataset 0.0.19>
<indep SSl 1>
  +1.45000000000000007355e-002
</indep>
<indep SSw 1>
  +1.54999999999999994553e-003
</indep>
<indep Gl 1>
  +1.77000000000000004552e-002
</indep>
<indep Gw 1>
  +1.54999999999999994553e-003
</indep>
<indep Sl 1>
  +1.32999999999999993228e-002
</indep>
<indep Sw 1>
  +1.54999999999999994553e-003
</indep>
<indep frequency 10>
  +5.60000000000000000000e+009
  +5.64444444444444465637e+009
  +5.68888888888888931274e+009
  +5.73333333333333301544e+009
  +5.77777777777777767181e+009
  +5.82222222222222232819e+009
  +5.86666666666666698456e+009
  +5.91111111111111068726e+009
  +5.95555555555555534363e+009
  +6.00000000000000000000e+009
</indep>
<dep SWR frequency>
  +1.47836403192857179789e+000
  +1.45077242155579155813e+000
  +1.51942986024913473386e+000
  +1.62713906737730029661e+000
  +1.73222793330533231249e+000
  +1.85881181602652389984e+000
  +1.99349605180776356939e+000
  +2.11015317994820206238e+000
  +2.20941078251005240674e+000
  +2.32991155517669756847e+000
</dep>
<dep ZofS11 frequency>
  +3.43009071094269373248e+001+j4.35957792956783141136e+000
  +3.45133953905482897540e+001+j1.36494988379818815716e+000
  +3.29343356920926524367e+001-j1.08305426193876264129e+000
  +3.08431099533330801421e+001-j2.40316388257934487882e+000
  +2.90169059999957532625e+001-j2.96212665791029783335e+000
  +2.70125350735587659301e+001-j2.73705988157038149211e+000
  +2.51278750071488836682e+001-j1.85803624561997771103e+000
  +2.37019486926375790858e+001-j7.55995105333161054872e-001
  +2.26316077263774779738e+001+j3.16406134586783016616e-001
  +2.15067292580474109798e+001+j2.10588745335140714587e+000
</dep>
<dep dBS11 frequency>
  -1.42881315980950844846e+001
  -1.47069129343825828471e+001
  -1.37155072037332281809e+001
  -1.24423841383203175326e+001
  -1.14374126920260383855e+001
  -1.04457511475640956178e+001
  -9.58025088269829971921e+000
  -8.94797743943394152666e+000
  -8.47702942235508061231e+000
  -7.97219878014472627115e+000
</dep>
<dep S[1,1] frequency>
  -1.83062886976672445360e-001+j6.11814869875528175025e-002
  -1.82935815707628068871e-001+j1.91052329246662738749e-002
  -2.05567607918825723257e-001-j1.57437221256514457701e-002
  -2.35871714693480505343e-001-j3.67378527368283983034e-002
  -2.63775979822151840359e-001-j4.73754884740501397422e-002
  -2.96851829611127271402e-001-j4.60906930511947171558e-002
  -3.30250215819376080617e-001-j3.28992816115324104853e-002
  -3.56673484531337736669e-001-j1.39160297934351750992e-002
  -3.76784920761035757586e-001+j5.99770827841891729371e-003
  -3.97257919204832665727e-001+j4.11495246906179029667e-002
</dep>
