<Qucs Dataset 0.0.19>
<indep frequency 50>
  +5.00000000000000000000e+009
  +5.02040816326530647278e+009
  +5.04081632653061199188e+009
  +5.06122448979591846466e+009
  +5.08163265306122493744e+009
  +5.10204081632653045654e+009
  +5.12244897959183692932e+009
  +5.14285714285714244843e+009
  +5.16326530612244892120e+009
  +5.18367346938775539398e+009
  +5.20408163265306091309e+009
  +5.22448979591836738586e+009
  +5.24489795918367385864e+009
  +5.26530612244897937775e+009
  +5.28571428571428585052e+009
  +5.30612244897959136963e+009
  +5.32653061224489784241e+009
  +5.34693877551020431519e+009
  +5.36734693877550983429e+009
  +5.38775510204081630707e+009
  +5.40816326530612277985e+009
  +5.42857142857142829895e+009
  +5.44897959183673477173e+009
  +5.46938775510204124451e+009
  +5.48979591836734676361e+009
  +5.51020408163265323639e+009
  +5.53061224489795875549e+009
  +5.55102040816326522827e+009
  +5.57142857142857170105e+009
  +5.59183673469387722015e+009
  +5.61224489795918369293e+009
  +5.63265306122449016571e+009
  +5.65306122448979568481e+009
  +5.67346938775510215759e+009
  +5.69387755102040863037e+009
  +5.71428571428571414948e+009
  +5.73469387755102062225e+009
  +5.75510204081632614136e+009
  +5.77551020408163261414e+009
  +5.79591836734693908691e+009
  +5.81632653061224460602e+009
  +5.83673469387755107880e+009
  +5.85714285714285755157e+009
  +5.87755102040816307068e+009
  +5.89795918367346954346e+009
  +5.91836734693877506256e+009
  +5.93877551020408153534e+009
  +5.95918367346938800812e+009
  +5.97959183673469352722e+009
  +6.00000000000000000000e+009
</indep>
<dep ZofS11 frequency>
  +1.47335675628358551137e+001-j4.88626255483599720719e+001
  +1.46940324624395337594e+001-j4.82646299113087025034e+001
  +1.47391253895118925499e+001-j4.75587437244028734540e+001
  +1.47747190287913792162e+001-j4.70149928918713797543e+001
  +1.47349660777552582402e+001-j4.66089580331661252899e+001
  +1.46396288521276041195e+001-j4.62096576749549825536e+001
  +1.45357344318705177244e+001-j4.58376524344885396545e+001
  +1.44332468594461218458e+001-j4.55315519941107567092e+001
  +1.43482036230355358697e+001-j4.51502574591852123831e+001
  +1.43196020247192805641e+001-j4.46614587256795019243e+001
  +1.43111203389993590918e+001-j4.41884357655698991607e+001
  +1.43204153298061864774e+001-j4.37026625418674186108e+001
  +1.42982373581866397672e+001-j4.32030082694980350766e+001
  +1.42457830170454737839e+001-j4.28419855409636980426e+001
  +1.41299242761027787907e+001-j4.26431169689559297353e+001
  +1.39963023208137773423e+001-j4.24645054596543971570e+001
  +1.39970663387400122701e+001-j4.21385475682487751214e+001
  +1.39917407711868655440e+001-j4.17710655123465954830e+001
  +1.39703961140156884824e+001-j4.14113718298877060420e+001
  +1.39626628987392713555e+001-j4.09633047790938107369e+001
  +1.39859260118169679288e+001-j4.04510056206895072251e+001
  +1.38980271548229019629e+001-j4.00953866777502909713e+001
  +1.36849623765381700480e+001-j3.99808468151392517598e+001
  +1.34152368168313298469e+001-j3.99813525906625244488e+001
  +1.33397399008772588047e+001-j3.97079599932713520616e+001
  +1.34241252775197033031e+001-j3.92237365368673422950e+001
  +1.33499912906990942929e+001-j3.88577432398620103982e+001
  +1.32430609175152120827e+001-j3.86002023597667900390e+001
  +1.31821520255832300705e+001-j3.82705620553648344639e+001
  +1.30719929739656848255e+001-j3.79621994715876098780e+001
  +1.28577419002458821495e+001-j3.78445524778703870084e+001
  +1.26003549528287734915e+001-j3.78194923563478297979e+001
  +1.24846076998936847957e+001-j3.75728743753744254263e+001
  +1.25245760943987960445e+001-j3.72057769708010255272e+001
  +1.24700368910466554695e+001-j3.69177949164302319218e+001
  +1.23339967589703700668e+001-j3.67877234714546759164e+001
  +1.22310108607182215223e+001-j3.66565675575394820385e+001
  +1.20958575882204488749e+001-j3.65539031636953595239e+001
  +1.19566888840355876056e+001-j3.64789336376275130647e+001
  +1.18314342293767396086e+001-j3.63291161616671871570e+001
  +1.17640638440722717917e+001-j3.61027100586911871005e+001
  +1.17426217138198598633e+001-j3.58257292958225548318e+001
  +1.17034341604208442789e+001-j3.56125596333949090422e+001
  +1.16346400921754220548e+001-j3.54390863125223631869e+001
  +1.15178513415786181184e+001-j3.53885145987489835306e+001
  +1.13221509170272458533e+001-j3.54565868081389510280e+001
  +1.11690226151545193289e+001-j3.54951449532350764571e+001
  +1.12097095989572679287e+001-j3.52847657660657745282e+001
  +1.12856365745112032783e+001-j3.50126295015459731985e+001
  +1.12608595101686823625e+001-j3.48505911756536050916e+001
</dep>
<dep dBS11 frequency>
  -2.58033840702218597585e+000
  -2.60504785902423119381e+000
  -2.65052622365930989901e+000
  -2.68624815804714911494e+000
  -2.70142562632885940843e+000
  -2.70631058104344957016e+000
  -2.70802293992575915382e+000
  -2.70621552543000509772e+000
  -2.71159829895545723133e+000
  -2.73330804796123594258e+000
  -2.75806393898517177021e+000
  -2.78712173066698820634e+000
  -2.81122548337185573786e+000
  -2.82170950571199963264e+000
  -2.81058695701489780205e+000
  -2.79469088799577836113e+000
  -2.81330307643531707384e+000
  -2.83319437410179286729e+000
  -2.84956256191960566326e+000
  -2.87384250819015418799e+000
  -2.90835102444019044654e+000
  -2.91116816859658200656e+000
  -2.87400775209800452004e+000
  -2.81839315156512082439e+000
  -2.81820034493469817605e+000
  -2.86328762948368620300e+000
  -2.86862291681200076710e+000
  -2.86066876442229611754e+000
  -2.86645385622029547079e+000
  -2.86032697954802372919e+000
  -2.82071195750816006154e+000
  -2.76641982363056282423e+000
  -2.75474401785103184537e+000
  -2.78352251013400175950e+000
  -2.78731153431290357148e+000
  -2.76433788437228411539e+000
  -2.74859906438729506561e+000
  -2.72405593577524651749e+000
  -2.69702226928500632397e+000
  -2.67690476462882376296e+000
  -2.67360919805217633893e+000
  -2.68322215377590422847e+000
  -2.68546175895795213862e+000
  -2.67883092015515078543e+000
  -2.65479078822572756025e+000
  -2.60664763973386959250e+000
  -2.56978139662404503341e+000
  -2.58958015633567795177e+000
  -2.62070977234712110260e+000
  -2.62318708320338966899e+000
</dep>
<dep ZofS22 frequency>
  +2.95717374852064871504e+001-j8.08672873001289218564e+001
  +2.93323566127026715833e+001-j8.01230132071827938489e+001
  +2.91602048295811719925e+001-j7.95194241721688541702e+001
  +2.90951170075575724638e+001-j7.86525522197190696261e+001
  +2.90392782801244031532e+001-j7.77139813652633790753e+001
  +2.87735510387520392328e+001-j7.70414734120326443190e+001
  +2.84326806002671617080e+001-j7.67544740223128911794e+001
  +2.81818379047543707827e+001-j7.62716295929116228081e+001
  +2.80198833785217722436e+001-j7.53894827228406967379e+001
  +2.77957342538600578052e+001-j7.46837028255944090915e+001
  +2.75240787143541609794e+001-j7.42447917228648179844e+001
  +2.73255991018188346686e+001-j7.35913241222768590433e+001
  +2.71511509457221649200e+001-j7.26496660321121083825e+001
  +2.69275808256813462549e+001-j7.19749411814655246644e+001
  +2.65618000841260410994e+001-j7.16503910566384121239e+001
  +2.61495758747595772320e+001-j7.13786089255074926996e+001
  +2.58099645119240825863e+001-j7.07577928187957923001e+001
  +2.56118095506167122721e+001-j7.00284518884419497908e+001
  +2.53966094109263309520e+001-j6.93581908040820565020e+001
  +2.51986343023472585401e+001-j6.86660392199349729481e+001
  +2.49643118195089286360e+001-j6.79335824988289687099e+001
  +2.46636373597115898804e+001-j6.72253715333997945436e+001
  +2.42706341443316766515e+001-j6.68335959368328076380e+001
  +2.38224765062572494401e+001-j6.65965624344801341294e+001
  +2.34602173552038983928e+001-j6.62953847930567263802e+001
  +2.31918516176346258817e+001-j6.56816183752903555160e+001
  +2.31474002402968039860e+001-j6.47548286695670896052e+001
  +2.30385570278181859294e+001-j6.39246067181062187501e+001
  +2.28225238698952175298e+001-j6.35402915725167574124e+001
  +2.24563583074313370957e+001-j6.33618131480415769374e+001
  +2.20568996015174718650e+001-j6.30490259977462841334e+001
  +2.17492066162047912314e+001-j6.24830278344469860485e+001
  +2.14868191961273922175e+001-j6.19235797475013214353e+001
  +2.11772502935493243115e+001-j6.15147955600350826444e+001
  +2.09466443797056385279e+001-j6.08648594202838069123e+001
  +2.08647317208409575073e+001-j6.00345613612417068339e+001
  +2.06344039540983175129e+001-j5.95300646324501840922e+001
  +2.02672076455389102989e+001-j5.94690373262107740970e+001
  +1.98336582494000843724e+001-j5.93726320405938920999e+001
  +1.96017902179302510035e+001-j5.87676543816929850550e+001
  +1.95075210902593774165e+001-j5.80088598167547857543e+001
  +1.92466322390757618166e+001-j5.74936101782451132181e+001
  +1.89798765877447301875e+001-j5.70584560941000447087e+001
  +1.87734857112310749017e+001-j5.64880295673864338823e+001
  +1.85258291689199907637e+001-j5.60016313615029872608e+001
  +1.82135366691774720493e+001-j5.58615262448263152351e+001
  +1.78787879269563454443e+001-j5.57557580953724638562e+001
  +1.76835463162481865140e+001-j5.53089416760096241887e+001
  +1.75900232564731346940e+001-j5.45934992430700631871e+001
  +1.74593073581185862508e+001-j5.40173561103438757414e+001
</dep>
<dep dBS21 frequency>
  -4.08972764268953792310e+000
  -4.04054373511468245539e+000
  -3.97996307199248811060e+000
  -3.94346331063772748138e+000
  -3.93161758297364727355e+000
  -3.91281623321653437841e+000
  -3.90751895646962044140e+000
  -3.90794444822390474314e+000
  -3.89276647473109971287e+000
  -3.86117612792031339453e+000
  -3.83233682847401002647e+000
  -3.80852686919572969160e+000
  -3.78449219297918793004e+000
  -3.77422103054972701841e+000
  -3.78404559304737908576e+000
  -3.79233335363629731063e+000
  -3.77797160850933355647e+000
  -3.75509084313708330072e+000
  -3.74038806980670379687e+000
  -3.71440447415912933238e+000
  -3.67921827028801162740e+000
  -3.67091216562096089859e+000
  -3.70874632205317977807e+000
  -3.76176290075873165364e+000
  -3.75441521346713313889e+000
  -3.71062130869451900494e+000
  -3.68185406381546176391e+000
  -3.68634174481572163273e+000
  -3.67473949747273431754e+000
  -3.67592419427781136321e+000
  -3.71052493781731396183e+000
  -3.76382666250898800797e+000
  -3.76354501291624021775e+000
  -3.73085655390488657446e+000
  -3.71194488568762759328e+000
  -3.72715453166040777688e+000
  -3.73971001279928616512e+000
  -3.75891002904852156163e+000
  -3.78650459493609936601e+000
  -3.80560486910377315795e+000
  -3.79985671791161161437e+000
  -3.78728478936125867449e+000
  -3.78633481540488192607e+000
  -3.79610917117174295754e+000
  -3.82140107676876805698e+000
  -3.87187060061188859095e+000
  -3.91127370636915294710e+000
  -3.88869855325471958096e+000
  -3.84726845999158006961e+000
  -3.84325233913642216876e+000
</dep>
<dep S[1,1] frequency>
  +1.59067091281341402298e-002-j7.42819896800057333230e-001
  +6.96708170219689087999e-003-j7.40846790145858857812e-001
  -3.24254076011232759968e-003-j7.37003390181090733968e-001
  -1.11295952038023351904e-002-j7.33901303533829652004e-001
  -1.73637620911769492704e-002-j7.32498489839572330951e-001
  -2.38134296326326516668e-002-j7.31905008529274092588e-001
  -2.99431055019270531137e-002-j7.31535396829398831819e-001
  -3.51112274228297729928e-002-j7.31458105376866285496e-001
  -4.13616279414978846307e-002-j7.30676894806793653103e-001
  -4.89758473842276248478e-002-j7.28375021570880742949e-001
  -5.62653918163974892108e-002-j7.25764302839692065916e-001
  -6.36680234290976504452e-002-j7.22711824016405102178e-001
  -7.15009852871636153449e-002-j7.19958552988895772451e-001
  -7.74149454106257267627e-002-j7.18468876014065727098e-001
  -8.12515769227320217016e-002-j7.18976951681286502449e-001
  -8.49109334924054437455e-002-j7.19888565242048361625e-001
  -9.00016334671800283251e-002-j7.17706112311615296306e-001
  -9.57931175691965758334e-002-j7.15286778423928848447e-001
  -1.01586844535853398908e-001-j7.13114584137960916266e-001
  -1.08689267364425481976e-001-j7.10032608183583713313e-001
  -1.16588787794633191863e-001-j7.05891781932453277193e-001
  -1.22870183375818453619e-001-j7.04590050680017676576e-001
  -1.26321728687458056939e-001-j7.07094654982568182611e-001
  -1.28384833001756043513e-001-j7.11411864572979890653e-001
  -1.33364936859101029798e-001-j7.10511436280059416326e-001
  -1.40491697270257037689e-001-j7.05320659299168095657e-001
  -1.46991149740457238693e-001-j7.03543705167839594772e-001
  -1.52039590445955885567e-001-j7.03143723161587907988e-001
  -1.57899012160831936358e-001-j7.01360187617599661891e-001
  -1.63860645533407789376e-001-j7.00512349452906968317e-001
  -1.67642029438675510544e-001-j7.02998369374865927917e-001
  -1.70292930095814726288e-001-j7.07022900394058573248e-001
  -1.75396053924206485330e-001-j7.06782196465325251999e-001
  -1.81136942759298258387e-001-j7.02845511466218542118e-001
  -1.86418728947546241681e-001-j7.01135544336053517789e-001
  -1.89838097184184928512e-001-j7.02208059339858414738e-001
  -1.92987101313989189988e-001-j7.02717369840981209705e-001
  -1.95971890463992604037e-001-j7.04031514637067146190e-001
  -1.98540668231605321736e-001-j7.05678213053832159574e-001
  -2.02260636033002677570e-001-j7.06389344633565174902e-001
  -2.06752382004621149125e-001-j7.05378316267139093831e-001
  -2.11676880650276566520e-001-j7.03067131185121207970e-001
  -2.15695107237094507724e-001-j7.01646757455163361250e-001
  -2.19339160748879269391e-001-j7.01103562824307857682e-001
  -2.21369457737619623749e-001-j7.02600138708042609714e-001
  -2.22146990504266839128e-001-j7.06647764520732746263e-001
  -2.23000186580863402064e-001-j7.09682238567702738941e-001
  -2.26243675731054361133e-001-j7.06876754583179001123e-001
  -2.30187297910777355359e-001-j7.02808920437513418022e-001
  -2.33243977353898596094e-001-j7.01578169458487610477e-001
</dep>
<dep S[1,2] frequency>
  +6.10286791132342520960e-001+j1.51727221251612254260e-001
  +6.13850463023600800838e-001+j1.47078946083618267160e-001
  +6.16337690434462959210e-001+j1.43015635477235891759e-001
  +6.20429431660527219705e-001+j1.36946909556061424684e-001
  +6.25214610585875907312e-001+j1.31578564185423158017e-001
  +6.27358278535242952501e-001+j1.27405463731103257841e-001
  +6.26266807733161567917e-001+j1.24709020853570481946e-001
  +6.27092928736255217359e-001+j1.20471362646612872860e-001
  +6.31078413122614478858e-001+j1.14512481312660563404e-001
  +6.34050328245249206205e-001+j1.09008455046933100396e-001
  +6.34622620227326739162e-001+j1.04687799033719913799e-001
  +6.36281086054463096424e-001+j9.95515091418115727340e-002
  +6.40106886111794337602e-001+j9.31103303675183402444e-002
  +6.41966484347553212331e-001+j8.80717253517093179305e-002
  +6.41153490772658041230e-001+j8.53736948199191048037e-002
  +6.39969790252733594649e-001+j8.26544436740166976740e-002
  +6.41527705039957596433e-001+j7.82268382247134630436e-002
  +6.43798226402693130055e-001+j7.28363479230828836375e-002
  +6.45707327279771314821e-001+j6.73603555142799625965e-002
  +6.47220357111526700677e-001+j6.16749453345534215387e-002
  +6.48648852369952955144e-001+j5.56754532392366163762e-002
  +6.49466315442343233855e-001+j4.99886401107219047191e-002
  +6.48914168610050579034e-001+j4.70019932974813647863e-002
  +6.47208153155829801761e-001+j4.44792455415098098026e-002
  +6.45693880022021993170e-001+j4.12855948166909458852e-002
  +6.46869100155772480676e-001+j3.52929034670946550900e-002
  +6.51058184887288282638e-001+j2.80948488522935746481e-002
  +6.54237179398109991446e-001+j2.10641267405926313483e-002
  +6.53290633662215070032e-001+j1.66640199970020941311e-002
  +6.49927621057338034127e-001+j1.43258829206998894445e-002
  +6.48397246217908951316e-001+j1.16658314392932282999e-002
  +6.48912690497436162040e-001+j6.21673030379410462842e-003
  +6.48963527199131973155e-001+j7.74464383838047165654e-004
  +6.47734418557290969609e-001-j3.10941391384506049533e-003
  +6.48605652006422839229e-001-j8.80515214778118671113e-003
  +6.50906732421526745824e-001-j1.62301673120769374137e-002
  +6.50547766007595451576e-001-j2.03897659619173554635e-002
  +6.46729488427605803125e-001-j2.10334815457701995722e-002
  +6.43425987673891919272e-001-j2.20504836440725826563e-002
  +6.44031424342064617861e-001-j2.84479070551219015428e-002
  +6.45827853068970614281e-001-j3.60961020902258455934e-002
  +6.45322818903208861308e-001-j4.11410657152332104314e-002
  +6.43820285163270944473e-001-j4.55150555829614278380e-002
  +6.43457249835132638616e-001-j5.08157650221972290172e-002
  +6.42278532796542234173e-001-j5.46529787832657210078e-002
  +6.39456283639301958921e-001-j5.46835461651659637816e-002
  +6.36004733806697974963e-001-j5.57021517944089605834e-002
  +6.36320218103129664478e-001-j6.03164473276077695019e-002
  +6.38101856920996080014e-001-j6.73630923707179973814e-002
  +6.38459939293815725847e-001-j7.27392190004353400568e-002
</dep>
<dep S[2,1] frequency>
  +6.04602996791585023395e-001+j1.56274303662701341544e-001
  +6.09538837123609678059e-001+j1.51229379730526442005e-001
  +6.15800524475760058252e-001+j1.44006474008382179264e-001
  +6.19865792144914329320e-001+j1.38166679295489036594e-001
  +6.21615751312894815328e-001+j1.34235197441387732464e-001
  +6.23875061467530689363e-001+j1.30229640881023345234e-001
  +6.25131539192307683628e-001+j1.26040262284510928836e-001
  +6.25895861574005563099e-001+j1.22025071845876909027e-001
  +6.27961724874165350130e-001+j1.17147087145480194303e-001
  +6.31292070745353872674e-001+j1.11842356532803804958e-001
  +6.34466609058214170425e-001+j1.05967419541450669218e-001
  +6.37211225711071471700e-001+j1.00067804542380789368e-001
  +6.39909290029677668699e-001+j9.42162614875409476500e-002
  +6.41338797395250459488e-001+j8.96423647015057445397e-002
  +6.41050072056469022463e-001+j8.63622150086293394189e-002
  +6.40831505867991757519e-001+j8.33121744717825740700e-002
  +6.42613080675086711935e-001+j7.77022440200024200330e-002
  +6.44959509631116145734e-001+j7.23167140804373831386e-002
  +6.46653168472499317865e-001+j6.68620035757401809384e-002
  +6.49222419153925534019e-001+j6.06403681972501051867e-002
  +6.52530650869268646908e-001+j5.31922523969654836851e-002
  +6.53573310661385020737e-001+j4.78345755749872147966e-002
  +6.50878494623821746146e-001+j4.55902797172136053927e-002
  +6.46975403204585020056e-001+j4.44826720969197786371e-002
  +6.47883053800981545400e-001+j3.89301444152179432212e-002
  +6.51660443356318452857e-001+j2.96006293453980884323e-002
  +6.54030157203588036197e-001+j2.47014081075696556589e-002
  +6.53832761479987922826e-001+j2.06376620171750957411e-002
  +6.54858335407914493587e-001+j1.51157455115450145566e-002
  +6.54864529753170998561e-001+j1.01658695157220979599e-002
  +6.52294795395256588044e-001+j7.64679456513223110292e-003
  +6.48319275124649152531e-001+j6.18043988581226666490e-003
  +6.48369472253641054849e-001+j6.08022951802372757513e-004
  +6.50765480253153172363e-001-j7.98181652515453365915e-003
  +6.52086791497860196465e-001-j1.38086175654938692059e-002
  +6.50866507580583175674e-001-j1.71293415452001551724e-002
  +6.49821384557297210272e-001-j2.07124556075395371835e-002
  +6.48285331357208227665e-001-j2.36296992158914476168e-002
  +6.46106390739342950624e-001-j2.67081125506513916701e-002
  +6.44506511581332208749e-001-j3.07097442271586362761e-002
  +6.44648679892935172475e-001-j3.62107239763601040927e-002
  +6.45184295384993444777e-001-j4.27656521664358524326e-002
  +6.44866369932438288082e-001-j4.82752954452537741403e-002
  +6.43785868133759930920e-001-j5.27520483646456983529e-002
  +6.41657394253233315240e-001-j5.56415704765872709547e-002
  +6.37953112869540150953e-001-j5.51659587060588652019e-002
  +6.34978633193243879873e-001-j5.59131436142272786327e-002
  +6.36082711490349006489e-001-j6.19721675449849962458e-002
  +6.38380097464657847439e-001-j6.94812548697260889963e-002
  +6.38167399820437908353e-001-j7.40315141582151281519e-002
</dep>
<dep S[2,2] frequency>
  +3.81783642254461430543e-001-j6.28281867349475109386e-001
