<Qucs Dataset 0.0.19>
<indep frequency 100>
  +5.60000000000000000000e+009
  +5.60202020202020168304e+009
  +5.60404040404040431976e+009
  +5.60606060606060600281e+009
  +5.60808080808080768585e+009
  +5.61010101010101032257e+009
  +5.61212121212121200562e+009
  +5.61414141414141368866e+009
  +5.61616161616161632538e+009
  +5.61818181818181800842e+009
  +5.62020202020202064514e+009
  +5.62222222222222232819e+009
  +5.62424242424242401123e+009
  +5.62626262626262664795e+009
  +5.62828282828282833099e+009
  +5.63030303030303001404e+009
  +5.63232323232323265076e+009
  +5.63434343434343433380e+009
  +5.63636363636363601685e+009
  +5.63838383838383865356e+009
  +5.64040404040404033661e+009
  +5.64242424242424201965e+009
  +5.64444444444444465637e+009
  +5.64646464646464633942e+009
  +5.64848484848484802246e+009
  +5.65050505050505065918e+009
  +5.65252525252525234222e+009
  +5.65454545454545497894e+009
  +5.65656565656565666199e+009
  +5.65858585858585834503e+009
  +5.66060606060606098175e+009
  +5.66262626262626266479e+009
  +5.66464646464646434784e+009
  +5.66666666666666698456e+009
  +5.66868686868686866760e+009
  +5.67070707070707035065e+009
  +5.67272727272727298737e+009
  +5.67474747474747467041e+009
  +5.67676767676767635345e+009
  +5.67878787878787899017e+009
  +5.68080808080808067322e+009
  +5.68282828282828235626e+009
  +5.68484848484848499298e+009
  +5.68686868686868667603e+009
  +5.68888888888888931274e+009
  +5.69090909090909099579e+009
  +5.69292929292929267883e+009
  +5.69494949494949531555e+009
  +5.69696969696969699860e+009
  +5.69898989898989868164e+009
  +5.70101010101010131836e+009
  +5.70303030303030300140e+009
  +5.70505050505050468445e+009
  +5.70707070707070732117e+009
  +5.70909090909090900421e+009
  +5.71111111111111068726e+009
  +5.71313131313131332397e+009
  +5.71515151515151500702e+009
  +5.71717171717171764374e+009
  +5.71919191919191932678e+009
  +5.72121212121212100983e+009
  +5.72323232323232364655e+009
  +5.72525252525252532959e+009
  +5.72727272727272701263e+009
  +5.72929292929292964935e+009
  +5.73131313131313133240e+009
  +5.73333333333333301544e+009
  +5.73535353535353565216e+009
  +5.73737373737373733521e+009
  +5.73939393939393901825e+009
  +5.74141414141414165497e+009
  +5.74343434343434333801e+009
  +5.74545454545454502106e+009
  +5.74747474747474765778e+009
  +5.74949494949494934082e+009
  +5.75151515151515197754e+009
  +5.75353535353535366058e+009
  +5.75555555555555534363e+009
  +5.75757575757575798035e+009
  +5.75959595959595966339e+009
  +5.76161616161616134644e+009
  +5.76363636363636398315e+009
  +5.76565656565656566620e+009
  +5.76767676767676734924e+009
  +5.76969696969696998596e+009
  +5.77171717171717166901e+009
  +5.77373737373737335205e+009
  +5.77575757575757598877e+009
  +5.77777777777777767181e+009
  +5.77979797979797935486e+009
  +5.78181818181818199158e+009
  +5.78383838383838367462e+009
  +5.78585858585858631134e+009
  +5.78787878787878799438e+009
  +5.78989898989898967743e+009
  +5.79191919191919231415e+009
  +5.79393939393939399719e+009
  +5.79595959595959568024e+009
  +5.79797979797979831696e+009
  +5.80000000000000000000e+009
</indep>
<indep acfrequency 100>
  +5.60000000000000000000e+009
  +5.60202020202020168304e+009
  +5.60404040404040431976e+009
  +5.60606060606060600281e+009
  +5.60808080808080768585e+009
  +5.61010101010101032257e+009
  +5.61212121212121200562e+009
  +5.61414141414141368866e+009
  +5.61616161616161632538e+009
  +5.61818181818181800842e+009
  +5.62020202020202064514e+009
  +5.62222222222222232819e+009
  +5.62424242424242401123e+009
  +5.62626262626262664795e+009
  +5.62828282828282833099e+009
  +5.63030303030303001404e+009
  +5.63232323232323265076e+009
  +5.63434343434343433380e+009
  +5.63636363636363601685e+009
  +5.63838383838383865356e+009
  +5.64040404040404033661e+009
  +5.64242424242424201965e+009
  +5.64444444444444465637e+009
  +5.64646464646464633942e+009
  +5.64848484848484802246e+009
  +5.65050505050505065918e+009
  +5.65252525252525234222e+009
  +5.65454545454545497894e+009
  +5.65656565656565666199e+009
  +5.65858585858585834503e+009
  +5.66060606060606098175e+009
  +5.66262626262626266479e+009
  +5.66464646464646434784e+009
  +5.66666666666666698456e+009
  +5.66868686868686866760e+009
  +5.67070707070707035065e+009
  +5.67272727272727298737e+009
  +5.67474747474747467041e+009
  +5.67676767676767635345e+009
  +5.67878787878787899017e+009
  +5.68080808080808067322e+009
  +5.68282828282828235626e+009
  +5.68484848484848499298e+009
  +5.68686868686868667603e+009
  +5.68888888888888931274e+009
  +5.69090909090909099579e+009
  +5.69292929292929267883e+009
  +5.69494949494949531555e+009
  +5.69696969696969699860e+009
  +5.69898989898989868164e+009
  +5.70101010101010131836e+009
  +5.70303030303030300140e+009
  +5.70505050505050468445e+009
  +5.70707070707070732117e+009
  +5.70909090909090900421e+009
  +5.71111111111111068726e+009
  +5.71313131313131332397e+009
  +5.71515151515151500702e+009
  +5.71717171717171764374e+009
  +5.71919191919191932678e+009
  +5.72121212121212100983e+009
  +5.72323232323232364655e+009
  +5.72525252525252532959e+009
  +5.72727272727272701263e+009
  +5.72929292929292964935e+009
  +5.73131313131313133240e+009
  +5.73333333333333301544e+009
  +5.73535353535353565216e+009
  +5.73737373737373733521e+009
  +5.73939393939393901825e+009
  +5.74141414141414165497e+009
  +5.74343434343434333801e+009
  +5.74545454545454502106e+009
  +5.74747474747474765778e+009
  +5.74949494949494934082e+009
  +5.75151515151515197754e+009
  +5.75353535353535366058e+009
  +5.75555555555555534363e+009
  +5.75757575757575798035e+009
  +5.75959595959595966339e+009
  +5.76161616161616134644e+009
  +5.76363636363636398315e+009
  +5.76565656565656566620e+009
  +5.76767676767676734924e+009
  +5.76969696969696998596e+009
  +5.77171717171717166901e+009
  +5.77373737373737335205e+009
  +5.77575757575757598877e+009
  +5.77777777777777767181e+009
  +5.77979797979797935486e+009
  +5.78181818181818199158e+009
  +5.78383838383838367462e+009
  +5.78585858585858631134e+009
  +5.78787878787878799438e+009
  +5.78989898989898967743e+009
  +5.79191919191919231415e+009
  +5.79393939393939399719e+009
  +5.79595959595959568024e+009
  +5.79797979797979831696e+009
  +5.80000000000000000000e+009
</indep>
<dep SWR frequency>
  +1.34813322561875925665e+000
  +1.33852474670657972666e+000
  +1.32907555728883730595e+000
  +1.31978480203717118968e+000
  +1.31065180556023785918e+000
  +1.30168236594937791750e+000
  +1.29299087298211046182e+000
  +1.28445964763077835613e+000
  +1.27608929102070223216e+000
  +1.26788068529778263915e+000
  +1.25980741902280768407e+000
  +1.25164904878088156792e+000
  +1.24365456213251834861e+000
  +1.23582578803534359757e+000
  +1.22816497020862258616e+000
  +1.22060786067025439650e+000
  +1.21283974242846670499e+000
  +1.20523881493404538823e+000
  +1.19780821492871747402e+000
  +1.19055169840608154885e+000
  +1.18337664225541083773e+000
  +1.17598423895551684737e+000
  +1.16875847108407460162e+000
  +1.16170374955615240964e+000
  +1.15482539979596499080e+000
  +1.14813185224291647302e+000
  +1.14162624434347348412e+000
  +1.13530504842637247620e+000
  +1.12917705522049849343e+000
  +1.12325263096062410995e+000
  +1.11753017424935396917e+000
  +1.11198801832023019820e+000
  +1.10666281484376605171e+000
  +1.10157003239470996370e+000
  +1.09672758063093045422e+000
  +1.09214710747176835248e+000
  +1.08788290384773866926e+000
  +1.08400158317465722391e+000
  +1.08053847471638153621e+000
  +1.07753008350269197102e+000
  +1.07509617071381469167e+000
  +1.07331479724771461370e+000
  +1.07208568750025290406e+000
  +1.07142314389958803744e+000
  +1.07133033490033757751e+000
  +1.07194079455584456717e+000
  +1.07328380258134270520e+000
  +1.07515622345139449934e+000
  +1.07751411456930457078e+000
  +1.08031030765199864696e+000
  +1.08354503440396343628e+000
  +1.08714496197407606282e+000
  +1.09101392533076535507e+000
  +1.09511735423799017042e+000
  +1.09942474552716418223e+000
  +1.10393007255763264673e+000
  +1.10860041746956605735e+000
  +1.11339807916779864883e+000
  +1.11830680074153443471e+000
  +1.12331260862379878063e+000
  +1.12831381051116386161e+000
  +1.13332097600128212100e+000
  +1.13838375894409171707e+000
  +1.14349547067217516272e+000
  +1.14865028470113239578e+000
  +1.15386771553094202858e+000
  +1.15912245936450064576e+000
  +1.16439643590697983200e+000
  +1.16968730249911345709e+000
  +1.17499298742707880550e+000
  +1.18033793247320684117e+000
  +1.18570233624890608581e+000
  +1.19107332157558709618e+000
  +1.19644998381792189157e+000
  +1.20183151016314493376e+000
  +1.20720042755817535962e+000
  +1.21256594436108788848e+000
  +1.21793303735180780123e+000
  +1.22330134183927374814e+000
  +1.22867052568770063203e+000
  +1.23401620400156164514e+000
  +1.23935612383684001792e+000
  +1.24469596628058365440e+000
  +1.25003541706914655940e+000
  +1.25537418630819708198e+000
  +1.26086541708482169355e+000
  +1.26638479043040952376e+000
  +1.27190503675344546153e+000
  +1.27742579406466671976e+000
  +1.28294672511520335689e+000
  +1.28830311846057066205e+000
  +1.29364379545195706811e+000
  +1.29898644937339846628e+000
  +1.30433038072583173950e+000
  +1.30967493316398297942e+000
  +1.31517286807475652921e+000
  +1.32068466019170682735e+000
  +1.32620154102481735414e+000
  +1.33172269705089263425e+000
  +1.33724736181701064908e+000
</dep>
<dep ZofS11 frequency>
  +5.23284602561356422257e+001+j1.51589530969620085443e+001
  +5.25347517124995633253e+001+j1.47805799152986505618e+001
  +5.27343606115101835030e+001+j1.43999439975655150192e+001
  +5.29272628679281424979e+001+j1.40172095125121884962e+001
  +5.31134395790932032355e+001+j1.36325404211101197660e+001
  +5.32934805587734317101e+001+j1.32462887854575921409e+001
  +5.34783375022760694151e+001+j1.28618280162876299499e+001
  +5.36566167493497445662e+001+j1.24755696539797931166e+001
  +5.38283066502224727401e+001+j1.20876698212784638997e+001
  +5.39934002899128273611e+001+j1.16982840551217268654e+001
  +5.41506703028605471673e+001+j1.13066494252103399987e+001
  +5.42901172919395307304e+001+j1.09057529884744699444e+001
  +5.44226184151060650152e+001+j1.05041582151697880931e+001
  +5.45481972935176173678e+001+j1.01020279526405563075e+001
  +5.46668822982473301408e+001+j9.69952307527935353448e+000
  +5.47745708637067707514e+001+j9.29524072448194971230e+000
  +5.48517412431992283928e+001+j8.88250686389685562006e+000
  +5.49216993050601232085e+001+j8.47067055831222859297e+000
  +5.49845209651761379632e+001+j8.05989367316364635485e+000
  +5.50402863603989089825e+001+j7.65033406139624005959e+000
  +5.50807071593373009932e+001+j7.24192385435363306101e+000
  +5.50807207236297600161e+001+j6.83490607437294706017e+000
  +5.50739189852972756967e+001+j6.43081054097826765314e+000
  +5.50604404532243876247e+001+j6.02976673509779814708e+000
  +5.50404257147699667030e+001+j5.63189806362955280861e+000
  +5.50114716078608836369e+001+j5.23965591064088975770e+000
  +5.49688217328693511377e+001+j4.85798369429632703742e+000
  +5.49203762756142381818e+001+j4.48007281550361735611e+000
  +5.48662860764016215853e+001+j4.10600902474946938270e+000
  +5.48067021529430391524e+001+j3.73587230548840842914e+000
  +5.47375637083170971664e+001+j3.37415806663125783516e+000
  +5.46537154908692954791e+001+j3.02703441118517790898e+000
  +5.45653045460990142601e+001+j2.68434363178535662087e+000
  +5.44724831288820610098e+001+j2.34612400136754351010e+000
  +5.43754019046340530963e+001+j2.01240891381465702992e+000
  +5.42773904556570201407e+001+j1.67433148431513556531e+000
  +5.41808206063204522707e+001+j1.32420781208601456846e+000
  +5.40796946427709173122e+001+j9.78557431162827229265e-001
  +5.39741633491939580836e+001+j6.37420177598668091790e-001
  +5.38643760845300860751e+001+j3.00831047008234042650e-001
  +5.37546654334041420498e+001-j3.22038914551975863354e-002
  +5.36471496186647556215e+001-j3.62344433109530905668e-001
  +5.35356398319390294205e+001-j6.88099556300584724866e-001
  +5.34202733739332984442e+001-j1.00944257729887354458e+000
  +5.33011859810446253505e+001-j1.32635089289277252611e+000
  +5.31830148701280336354e+001-j1.64534576475226601566e+000
  +5.30665695581600616038e+001-j1.96797389432961766786e+000
  +5.29463556187053825397e+001-j2.28625886183269555474e+000
  +5.28225040750234953180e+001-j2.60017736006227950796e+000
  +5.26951444532350095074e+001-j2.90970987171413009165e+000
  +5.25720233774473513222e+001-j3.21202662855574860856e+000
  +5.24533154319491075057e+001-j3.50740058911734742253e+000
  +5.23315329467782319739e+001-j3.79872868156498100234e+000
  +5.22067873925033723026e+001-j4.08600120587372384051e+000
  +5.20791887016388699294e+001-j4.36921133034046338395e+000
  +5.19523743094441314838e+001-j4.64809284424806534730e+000
  +5.18258074179484111710e+001-j4.92283956378851961233e+000
  +5.16967006544448182126e+001-j5.19370812808771020741e+000
  +5.15651522588718407292e+001-j5.46069987764522224438e+000
  +5.14312588662284326801e+001-j5.72381839216835341944e+000
  +5.13013057588807015463e+001-j5.97797752141871807652e+000
  +5.11734816329052932815e+001-j6.22511069428517593849e+000
  +5.10437828234701669317e+001-j6.46868080326752359355e+000
  +5.09122899724496207341e+001-j6.70870089901001254162e+000
  +5.07790821263210219172e+001-j6.94518553207901145896e+000
  +5.06595423763828236474e+001-j7.17893465297381450085e+000
  +5.05465947197048564021e+001-j7.41002109543299436467e+000
  +5.04320443038836003780e+001-j7.63812211283195008349e+000
  +5.03159539740754127024e+001-j7.86324866369021524548e+000
  +5.01983853878291625961e+001-j8.08541276048088342066e+000
  +5.00902628543282872897e+001-j8.30653544012933764407e+000
  +4.99853618331682909570e+001-j8.52580336048781184388e+000
  +4.98790661443698155608e+001-j8.74245522395852248110e+000
  +4.97714274101988038979e+001-j8.95650132959673328514e+000
  +4.96624962930850344378e+001-j9.16795275871961123926e+000
  +4.95610122598129692051e+001-j9.37736204014421836916e+000
  +4.94611769542256638488e+001-j9.58457879263011847115e+000
  +4.93601301984824800684e+001-j9.78946067434771016735e+000
  +4.92579149679035737108e+001-j9.99201764677908776946e+000
  +4.91545734450478306599e+001-j1.01922602541203346505e+001
  +4.90447488174690775509e+001-j1.03881523051996271789e+001
  +4.89325918951312104355e+001-j1.05811281315424015048e+001
  +4.88195004980768985092e+001-j1.07717016655198651875e+001
  +4.87055153060243526397e+001-j1.09598881985613623158e+001
  +4.85906761355491170207e+001-j1.11457034682691702443e+001
  +4.84616262574774196992e+001-j1.13318435286224961089e+001
  +4.83294350397994634250e+001-j1.15158269457699091731e+001
  +4.81965094931185333849e+001-j1.16971775658996612890e+001
  +4.80628920168463196205e+001-j1.18759163543375176886e+001
  +4.79286240014653728281e+001-j1.20520646692232134001e+001
  +4.77622904460921304803e+001-j1.22093788300492249732e+001
  +4.75923693718563285415e+001-j1.23618231263581446200e+001
  +4.74224226076848935918e+001-j1.25112163691303646118e+001
  +4.72524904795274167668e+001-j1.26575978526665338109e+001
  +4.70826119350031575550e+001-j1.28010068685639399888e+001
  +4.68889558498057255065e+001-j1.29381466502498305715e+001
  +4.66943608407106864888e+001-j1.30717951528342286593e+001
  +4.65001277282448270967e+001-j1.32021662506597596831e+001
  +4.63062947063171819195e+001-j1.33293090006395864577e+001
  +4.61128984163439383792e+001-j1.34532722098411863243e+001
</dep>
<dep dBS21 frequency>
  -2.54631219902418060030e+001
  -2.55551559007398267909e+001
  -2.56484497291836355259e+001
  -2.57430264906794405988e+001
  -2.58389101215632130959e+001
  -2.59361198145093396761e+001
  -2.60345776335984240291e+001
  -2.61344179979661284108e+001
  -2.62356690517649546734e+001
  -2.63383600929133088187e+001
  -2.64424404366045919801e+001
  -2.65472946259671616076e+001
  -2.66536883161953710442e+001
  -2.67616559139464271766e+001
  -2.68712332989630375835e+001
  -2.69820351326298570882e+001
  -2.70921273492550263029e+001
  -2.72039461209658952612e+001
  -2.73175338474803908184e+001
  -2.74329348443902354404e+001
  -2.75500114087955196851e+001
  -2.76682560967698307763e+001
  -2.77884531154949385723e+001
  -2.79106553736473514959e+001
  -2.80349183236292489596e+001
  -2.81608853518671011784e+001
  -2.82877831981597971378e+001
  -2.84169173800905596750e+001
  -2.85483552160224220984e+001
  -2.86821674725830355612e+001
  -2.88190730511339197051e+001
  -2.89600032472051047705e+001
  -2.91035334573348620779e+001
  -2.92497507167681938256e+001
  -2.93987468611456961298e+001
  -2.95498481259093814799e+001
  -2.97025068632880184794e+001
  -2.98582679086901947585e+001
  -3.00172460405633216851e+001
  -3.01795629263209086446e+001
  -3.03452191590280619948e+001
  -3.05142896176555780130e+001
  -3.06871137905984205929e+001
  -3.08638469954966296882e+001
  -3.10446548136602586965e+001
  -3.12297026710050005249e+001
  -3.14191832910452575334e+001
  -3.16133151563670757866e+001
  -3.18123150920979860246e+001
  -3.20164159236161367517e+001
  -3.22265715790940703300e+001
  -3.24430490632245565052e+001
  -3.26654352550118076692e+001
  -3.28940452425980893736e+001
  -3.31292205020974108720e+001
  -3.33712626633448294911e+001
  -3.36205876355999606631e+001
  -3.38776925681280687286e+001
  -3.41430595180568872138e+001
  -3.44172173220502699564e+001
  -3.47019903796949975572e+001
  -3.49976051175821254446e+001
  -3.53039439476123817485e+001
  -3.56217971921072802388e+001
  -3.59520464893937869988e+001
  -3.62966618673637100301e+001
  -3.66563028220435569438e+001
  -3.70316970083286776116e+001
  -3.74242721611263675641e+001
  -3.78356600970657979133e+001
  -3.82693399040896125030e+001
  -3.87265710255824444630e+001
  -3.92092026513695373069e+001
  -3.97202180020920110337e+001
  -4.02631598752772532634e+001
  -4.08430044868836361616e+001
  -4.14644311593769145929e+001
  -4.21335537229862282516e+001
  -4.28583177069269822823e+001
  -4.36488376968678082335e+001
  -4.45181569278307165405e+001
  -4.54839007032684889964e+001
  -4.65702353490923428581e+001
  -4.78116790925150922931e+001
  -4.92600908786585023336e+001
  -5.09964970439848030992e+001
  -5.31690031950168986441e+001
  -5.60736827095666257037e+001
  -6.04703263905747832041e+001
  -6.98174054019662406745e+001
  -7.04120155754487484501e+001
  -6.06635588841704844754e+001
  -5.61839811840819578492e+001
  -5.32418237129691505061e+001
  -5.10469814332065681128e+001
  -4.92921817429258979359e+001
  -4.78310658117184601679e+001
  -4.65791260586988187242e+001
  -4.54837166653042785924e+001
  -4.45098632535254594700e+001
</dep>
<dep dBS11 frequency>
  -1.65795451941163420884e+001
  -1.67870309648715085871e+001
  -1.69977590443532875497e+001
  -1.72117975809891738947e+001
  -1.74292124797910688017e+001
  -1.76499093012316770057e+001
  -1.78709646859705699740e+001
  -1.80952564683037770976e+001
  -1.83227946785846214084e+001
  -1.85535760203116915079e+001
  -1.87883976309647664493e+001
  -1.90341081482832059635e+001
  -1.92836289079368015109e+001
  -1.95369333330152343819e+001
  -1.97939674712282318580e+001
  -2.00570177945036540734e+001
  -2.03379447609161090327e+001
  -2.06239225931401470859e+001
  -2.09149093713184122123e+001
  -2.12108136644943101601e+001
  -2.15156928732356504952e+001
  -2.18436394193225780214e+001
  -2.21789121272666953644e+001
  -2.25215217099100186715e+001
  -2.28713975194739589369e+001
  -2.32282496305580643536e+001
  -2.35919988316624582581e+001
  -2.39629185159010518191e+001
  -2.43405279493721735662e+001
  -2.47241094473185825109e+001
  -2.51136045518945358879e+001
  -2.55103978073489621181e+001
  -2.59116397784125851445e+001
  -2.63155655195799766943e+001
  -2.67198336549362771564e+001
  -2.71222102235904642953e+001
  -2.75160347926922383976e+001
  -2.78922114656368833607e+001
  -2.82434470207272703135e+001
  -2.85615413909296123052e+001
  -2.88284087368998207523e+001
  -2.90294721878460393327e+001
  -2.91711733228918070893e+001
  -2.92485972252244437186e+001
  -2.92595020491062101087e+001
