<Qucs Dataset 0.0.19>
<indep frequency 10>
  +5.60000000000000000000e+009
  +5.62222222222222232819e+009
  +5.64444444444444465637e+009
  +5.66666666666666698456e+009
  +5.68888888888888931274e+009
  +5.71111111111111068726e+009
  +5.73333333333333301544e+009
  +5.75555555555555534363e+009
  +5.77777777777777767181e+009
  +5.80000000000000000000e+009
</indep>
<indep acfrequency 10>
  +5.60000000000000000000e+009
  +5.62222222222222232819e+009
  +5.64444444444444465637e+009
  +5.66666666666666698456e+009
  +5.68888888888888931274e+009
  +5.71111111111111068726e+009
  +5.73333333333333301544e+009
  +5.75555555555555534363e+009
  +5.77777777777777767181e+009
  +5.80000000000000000000e+009
</indep>
<dep ZofS11 frequency>
  +6.32845981520257083730e+001+j2.34191420490413051425e+001
  +6.73187171640362436165e+001+j1.81268810994843505568e+001
  +6.98888814378278482309e+001+j1.19443763980461490348e+001
  +7.05126434764234346630e+001+j5.29906768008061312969e+000
  +7.03126904605391160885e+001-j8.30742897834634730359e-001
  +6.92522193209016023729e+001-j6.36234559355492379495e+000
  +6.69177975454233973096e+001-j1.11887702721430706276e+001
  +6.46100126051832575058e+001-j1.52737281336401125031e+001
  +6.25815923384508394633e+001-j1.89035028711264274648e+001
  +6.02172831254396356826e+001-j2.19601168871520329162e+001
</dep>
<dep dBS11 frequency>
  -1.26621624106119501363e+001
  -1.35066047440312591021e+001
  -1.43087479282451983664e+001
  -1.51080416965346930880e+001
  -1.54438287725530525307e+001
  -1.54019096469403180549e+001
  -1.52545567775623744922e+001
  -1.47603643376391762132e+001
  -1.40266398816780473169e+001
  -1.33303527770687146869e+001
</dep>
<dep SWR frequency>
  +1.60671627135869909964e+000
  +1.53545920683398895434e+000
  +1.47695950789132690595e+000
  +1.42609414302785486584e+000
  +1.40665081124145041613e+000
  +1.40902042977655761469e+000
  +1.41747927511721427685e+000
  +1.44738835079796568373e+000
  +1.49661464077533068462e+000
  +1.54945110052208345763e+000
</dep>
<dep S[1,1] frequency>
  +1.53446316961267537060e-001+j1.75006675917388609953e-001
  +1.67495676736572257637e-001+j1.28630002504228319049e-001
  +1.74092159244255112460e-001+j8.22841451331745021847e-002
  +1.71812808310435799486e-001+j3.64162618455669967465e-002
  +1.68872110428882615807e-001-j5.73882596100661057648e-003
  +1.63821312577971722746e-001-j4.46118136638453607890e-002
  +1.52460044404810979302e-001-j8.11076675981064615373e-002
  +1.42701574622723315056e-001-j1.14249556220868034306e-001
  +1.36111412291793854035e-001-j1.45054977984157923432e-001
  +1.27344074898848136357e-001-j1.73871334640654573445e-001
</dep>
<dep _net0.v acfrequency>
  +1.15344631696126687093e-001+j1.75006675917388637709e-002
  +1.16749567673657198008e-001+j1.28630002504228138638e-002
  +1.17409215924425491817e-001+j8.22841451331745438180e-003
  +1.17181280831043566071e-001+j3.64162618455669915424e-003
  +1.16887211042888253254e-001-j5.73882596100651646773e-004
  +1.16382131257797186152e-001-j4.46118136638457528365e-003
  +1.15246004440481109032e-001-j8.11076675981067980736e-003
  +1.14270157462272328730e-001-j1.14249556220868148798e-002
  +1.13611141229179396506e-001-j1.45054977984157822818e-002
  +1.12734407489884821962e-001-j1.73871334640654726100e-002
</dep>
<dep _net4.v acfrequency>
  +8.92994420937069377509e-002-j3.74142469895544088621e-002
  +8.83225303866293220967e-002-j4.14190517674605934717e-002
  +8.65691648370721655859e-002-j4.51877394664887827025e-002
  +8.38260865711809161072e-002-j4.86330552125824738807e-002
  +8.13998519247464413784e-002-j5.16922659855016050634e-002
  +7.90152543498851694936e-002-j5.43548539623070203763e-002
  +7.59893218428153438548e-002-j5.65867942724519804032e-002
  +7.34774257516588036321e-002-j5.85628291179246321385e-002
  +7.16393686486877651065e-002-j6.04600187484607698440e-002
  +6.96664309278310772688e-002-j6.21221325786399797275e-002
</dep>
<dep _net1.v acfrequency>
  +1.06444742059450328520e-002+j1.76365322864755966203e-003
  +1.04658613866686067695e-002+j1.28868995860572451047e-003
  +1.02416449074286680654e-002+j8.41352874372379802050e-004
  +9.96289510498197215804e-003+j4.21922111455011754257e-004
  +9.70100962113244758012e-003+j5.47872353747451824695e-005
  +9.44255099456446471418e-003-j2.68434439550820449528e-004
  +9.15347740143548568859e-003-j5.59069291184132615737e-004
  +8.89654677510271982288e-003-j8.11775088767000734327e-004
  +8.68132073901695978935e-003-j1.03719956980634331854e-003
  +8.46495805092758145383e-003-j1.24043432107034121495e-003
</dep>
<indep _net0.V 1>
  +0.00000000000000000000e+000
</indep>
<indep _net4.V 1>
  +0.00000000000000000000e+000
</indep>
<indep _net1.V 1>
  +0.00000000000000000000e+000
</indep>
