<Qucs Dataset 0.0.19>
<indep frequency 10>
  +1.00000000000000000000e+009
  +1.55555555555555558205e+009
  +2.11111111111111116409e+009
  +2.66666666666666650772e+009
  +3.22222222222222232819e+009
  +3.77777777777777767181e+009
  +4.33333333333333301544e+009
  +4.88888888888888931274e+009
  +5.44444444444444465637e+009
  +6.00000000000000000000e+009
</indep>
<dep ZofS11 frequency>
  +4.91300916902165738520e+001-j7.88598331767748739196e+000
  +4.77152708933494338339e+001-j1.14841850090854595834e+001
  +4.77974883367243137400e+001-j1.35597240734683346375e+001
  +5.00617577649840654885e+001-j1.31486816044011387561e+001
  +5.39512963479075153828e+001-j1.06886287386432154989e+001
  +5.84665247960843288411e+001-j8.16719526701558073967e+000
  +6.04721757014943790409e+001-j7.10902353397658526291e+000
  +5.93301944301320034469e+001-j1.16010286021672808232e+001
  +5.44094163459104152025e+001-j1.93627961639339467581e+001
  +4.68760401536182342852e+001-j2.68477201742280655594e+001
</dep>
<dep dBS11 frequency>
  -2.19618628378018527769e+001
  -1.84882454532347040299e+001
  -1.71311366629740433609e+001
  -1.77019740436620232060e+001
  -1.92475354581497306583e+001
  -1.93195738847252940218e+001
  -1.88362535374069608451e+001
  -1.73670171153749350879e+001
  -1.45627069891398441825e+001
  -1.14091387451514396645e+001
</dep>
<dep ZofS22 frequency>
  +4.98893630946530066694e+001-j8.24603923901301172350e+000
  +4.85086757708007354495e+001-j1.19492457971691354857e+001
  +4.65092389265147261312e+001-j1.29409381647473509247e+001
  +4.45835817096772544232e+001-j1.07110356028152189367e+001
  +4.27453856381418475507e+001-j6.64685220749028538023e+000
  +4.07060157309773487100e+001-j2.63920699378675216451e+000
  +3.89567844494597395055e+001-j5.82185954360348034697e-001
  +3.70991072089725051342e+001-j2.36235061999554618595e+000
  +3.45056452969047029455e+001-j7.11168131888174226418e+000
  +3.15882980220832898510e+001-j1.25352017778800899350e+001
</dep>
<dep dBS21 frequency>
  -5.72811736742928553912e-002
  -1.07062543617584576827e-001
  -1.34802219034783593576e-001
  -1.28193967193769325918e-001
  -9.14881245461397207830e-002
  -9.56763930915971450020e-002
  -1.23606132499302828753e-001
  -1.83029045351820324194e-001
  -2.83804356173432026367e-001
  -4.56268492383181234473e-001
</dep>
<dep S[1,1] frequency>
  -2.43153459581998011158e-003-j7.97452945331700996379e-002
  -9.43852290843740469872e-003-j1.18636305731896055105e-001
  -3.23484784275588493907e-003-j1.39099561236149082966e-001
  +1.75810645878935710440e-002-j1.29095411397908810258e-001
  +4.80754075761364169095e-002-j9.78801507347219490462e-002
  +8.32541753216376467783e-002-j6.90281372473704329940e-002
  +9.85277631518296226343e-002-j5.80108729305443271418e-002
  +9.55233995882239644848e-002-j9.59740258952301861228e-002
  +7.40763019321663135353e-002-j1.71713169716857821934e-001
  +4.13786711427404640951e-002-j2.65667312055643700663e-001
</dep>
<dep S[1,2] frequency>
  +9.93524120614177497224e-001-j3.15380487781600285513e-002
  +9.88034535870360497434e-001-j5.11100074991211530961e-002
  +9.84077160492244140677e-001-j6.67452519968834145914e-002
  +9.82696650267034566006e-001-j8.89422881526546194042e-002
  +9.84090606578240434388e-001-j1.17016672239981717185e-001
  +9.79739112422707170147e-001-j1.45046745936594168036e-001
  +9.71670405901359446332e-001-j1.75579210330958218611e-001
  +9.58206603271225643148e-001-j2.08258076190331764543e-001
  +9.40905252119263346700e-001-j2.35245407789521465691e-001
  +9.15427860623645561766e-001-j2.57865899000991050105e-001
</dep>
<dep S[2,1] frequency>
  +9.92908733879979465975e-001-j3.20837736214218613440e-002
  +9.86544528913119611602e-001-j4.87771587964761291212e-002
  +9.82240930970806114253e-001-j6.81187986377989607156e-002
  +9.81311429814522462323e-001-j8.91152049384073552396e-002
  +9.83301131914403714340e-001-j1.10784932932848578790e-001
  +9.78746966734285184231e-001-j1.42355071425845330912e-001
  +9.69925634199289787851e-001-j1.76590230751275611976e-001
  +9.57243341895771759908e-001-j2.05953641190594310961e-001
  +9.38557103154850191906e-001-j2.36329515815444535232e-001
  +9.12346671990261204321e-001-j2.60565389715077699861e-001
</dep>
<dep S[2,2] frequency>
  +5.66856279950663042438e-003-j8.20837754263183533299e-002
  -4.18808489114904508588e-004-j1.21352258054522599284e-001
  -1.78687754697518276503e-002-j1.36486175102995960229e-001
  -4.38789981566701237092e-002-j1.18213170956108948317e-001
  -7.27110298494196005681e-002-j7.68787754527540945215e-002
  -1.01530163088858038645e-001-j3.20504223106157087875e-002
  -1.24093205846759466193e-001-j7.35673259646306074155e-003
  -1.47273421744589405602e-001-j3.11169903574344056119e-002
  -1.75030995702036396011e-001-j9.88862454322595174627e-002
  -1.97401122022385133725e-001-j1.83968351313665012814e-001
</dep>
<indep _net0.V 1>
  +0.00000000000000000000e+000
</indep>
<indep _net1.V 1>
  +0.00000000000000000000e+000
</indep>
