<Qucs Dataset 0.0.19>
<indep frequency 10>
  +1.00000000000000000000e+009
  +1.55555555555555558205e+009
  +2.11111111111111116409e+009
  +2.66666666666666650772e+009
  +3.22222222222222232819e+009
  +3.77777777777777767181e+009
  +4.33333333333333301544e+009
  +4.88888888888888931274e+009
  +5.44444444444444465637e+009
  +6.00000000000000000000e+009
</indep>
<dep ZofS11 frequency>
  +5.72256503449389963833e+000-j2.66497604185402963139e+002
  +4.62864323349625195192e+000-j1.84933354110694267547e+002
  +3.02978393194876183259e+000-j1.51622958294749963670e+002
  +3.42579799966643250286e+000-j1.29809589108737583274e+002
  +3.64616234420032814256e+000-j1.13348906710441724499e+002
  +2.68619289936509231254e+000-j9.19761412212768050267e+001
  +2.46996155386857374481e+000-j6.90585657758831672481e+001
  +2.24360236505501209336e+000-j5.00641560212416933950e+001
  +1.87424553479190292293e+000-j3.74594876537742038636e+001
  +1.16134968019590867350e+000-j3.09217023157139756506e+001
</dep>
<dep dBS11 frequency>
  -6.75785952592438399211e-002
  -1.09488224218684246369e-001
  -1.03211561162510692680e-001
  -1.53696936634495379126e-001
  -2.06207658309052438428e-001
  -2.12793039050799243084e-001
  -2.95003610136785776596e-001
  -3.89122997996686426081e-001
  -4.17024297116108888517e-001
  -2.91862622935116167167e-001
</dep>
<dep S[1,1] frequency>
  +9.24827210282767042671e-001-j3.59519852454287358601e-001
  +8.53088124919867407669e-001-j4.97338103403623943422e-001
  +7.94471580805460764196e-001-j5.87647631600944464481e-001
  +7.28869741722950936769e-001-j6.58769896560260637131e-001
  +6.58867141499532960047e-001-j7.20779173465257994025e-001
  +5.31071616065080021052e-001-j8.18624783647691867117e-001
  +3.02463580971052359292e-001-j9.18065560713813511029e-001
  +2.18752429601423714622e-003-j9.56186732961579077816e-001
  -2.67033166223768603231e-001-j9.14951393659283240822e-001
  -4.31633177666302103592e-001-j8.65273008273137800295e-001
</dep>
<indep _net0.V 1>
  +0.00000000000000000000e+000
</indep>
