<Qucs Dataset 0.0.19>
<indep SSl 1>
  +1.51000000000000005745e-002
</indep>
<indep SSw 1>
  +5.59999999999999950942e-004
</indep>
<indep Gl 1>
  +3.13999999999999973577e-002
</indep>
<indep Gw 1>
  +1.00000000000000002082e-003
</indep>
<indep Sl 1>
  +1.00000000000000002082e-002
</indep>
<indep Sw 1>
  +1.00000000000000002082e-003
</indep>
<indep frequency 10>
  +5.66000000000000000000e+009
  +5.66111111111111068726e+009
  +5.66222222222222232819e+009
  +5.66333333333333301544e+009
  +5.66444444444444465637e+009
  +5.66555555555555534363e+009
  +5.66666666666666698456e+009
  +5.66777777777777767181e+009
  +5.66888888888888931274e+009
  +5.67000000000000000000e+009
</indep>
<dep ZofS11 frequency>
  +3.27394889841637137806e+000-j6.77326665993812753186e+001
  +3.27099525245127598083e+000-j6.74744852420178204966e+001
  +3.26836727183722253187e+000-j6.72162815736453893578e+001
  +3.26606600143748826426e+000-j6.69580367365099817789e+001
  +3.26409271734386008390e+000-j6.66997317210901172757e+001
  +3.26244892738629577167e+000-j6.64413473548433444194e+001
  +3.26113637202198702880e+000-j6.61828642908092490416e+001
  +3.26015702560198183946e+000-j6.59242629960643284903e+001
  +3.25951309801591371240e+000-j6.56655237400023281680e+001
  +3.25920703671604439222e+000-j6.54066265824344839075e+001
</dep>
<dep dBS21 frequency>
  -inf
  -inf
  -inf
  -inf
  -inf
  -inf
  -inf
  -inf
  -inf
  -inf
</dep>
<dep dBS11 frequency>
  -4.00896218286604266723e-001
  -4.02517402108068800271e-001
  -4.04187431157747634192e-001
  -4.05907216595256192804e-001
  -4.07677712434448502599e-001
  -4.09499916727524837512e-001
  -4.11374872825803150622e-001
  -4.13303670719699089986e-001
  -4.15287448461049812920e-001
  -4.17327393671006352527e-001
</dep>
<dep SWR frequency>
  +4.33400522639770002797e+001
  +4.31655574454058168499e+001
  +4.29872691552868815279e+001
  +4.28052025508849283142e+001
  +4.26193724378063478753e+001
  +4.24297933197700345431e+001
  +4.22364794483316217111e+001
  +4.20394448726231644287e+001
  +4.18387034891333371434e+001
  +4.16342690915664164208e+001
</dep>
<dep S[1,1] frequency>
  +2.82585717718380424746e-001-j9.12122780462024440595e-001
  +2.79206579489765904789e-001-j9.12976466542051001696e-001
  +2.75806898688989610147e-001-j9.13817522564616124825e-001
  +2.72386358820636220734e-001-j9.14645750537665724877e-001
  +2.68944636879719922717e-001-j9.15460943869774723680e-001
  +2.65481403191805021002e-001-j9.16262887116937707610e-001
  +2.61996321249097996464e-001-j9.17051355715087779252e-001
  +2.58489047542625971499e-001-j9.17826115697779498781e-001
  +2.54959231390342211387e-001-j9.18586923398472254831e-001
  +2.51406514761267740887e-001-j9.19333525136764695418e-001
</dep>
