<Qucs Dataset 0.0.19>
<indep SWR_band 1>
  +1.17627327492918953844e+000
</indep>
<indep Gw 1>
  +2.17812800000000009529e-003
</indep>
<indep SSw 1>
  +1.25236800000000001419e-003
</indep>
<indep Sw 1>
  +3.91004999999999998395e-003
</indep>
<indep SSl 1>
  +1.81317900000000004936e-003
</indep>
<indep Sl 1>
  +7.22821200000000035207e-003
</indep>
<indep Gl 1>
  +8.88703599999999920012e-003
</indep>
<indep frequency 10>
  +5.60000000000000000000e+009
  +5.64444444444444465637e+009
  +5.68888888888888931274e+009
  +5.73333333333333301544e+009
  +5.77777777777777767181e+009
  +5.82222222222222232819e+009
  +5.86666666666666698456e+009
  +5.91111111111111068726e+009
  +5.95555555555555534363e+009
  +6.00000000000000000000e+009
</indep>
<dep ZofS11 frequency>
  +5.11804281142476682476e+001+j8.13666607326285173940e+000
  +5.15180197635731289552e+001+j6.29375953713997482453e+000
  +5.06265732661553187199e+001+j3.93433241070827444119e+000
  +4.95310352605019232897e+001+j2.00078511762077626557e+000
  +4.90353423195613018493e+001+j5.78017479067494011069e-001
  +4.79790350414531019396e+001-j7.81988498245163810019e-001
  +4.65528858215093350736e+001-j1.88824320800260303521e+000
  +4.56143025740832328552e+001-j2.68668072643782185338e+000
  +4.53439342289026683375e+001-j3.49793555228495378628e+000
  +4.38015513163959724352e+001-j3.94372241582307969665e+000
</dep>
<dep dBS11 frequency>
  -2.18305391130446793113e+001
  -2.39237462583572160213e+001
  -2.80546898977546206311e+001
  -3.37046432488140652595e+001
  -3.88961845617355734817e+001
  -3.31058389063150926290e+001
  -2.78082267827460718479e+001
  -2.53892020372605067280e+001
  -2.42878485503788041910e+001
  -2.21300474636914401572e+001
</dep>
<dep SWR frequency>
  +1.17627327492918953844e+000
  +1.13595821014874176491e+000
  +1.08238073104576093542e+000
  +1.04215573798664640215e+000
  +1.02297102820269536494e+000
  +1.04523251577764475506e+000
  +1.08485236826712894143e+000
  +1.11365097682129854384e+000
  +1.13001397145347226569e+000
  +1.16979136652067872149e+000
</dep>
<dep S[1,1] frequency>
  +1.80170073259364738050e-002+j7.89685105106514018125e-002
  +1.87247981957950337950e-002+j6.08356050905774214943e-002
  +7.74356081201921231383e-003+j3.87955839269772811972e-002
  -4.30590846355971557102e-003+j2.01886809469359364277e-002
  -9.70614457224261428792e-003+j5.89312650024868042026e-003
  -2.05614949873917374212e-002-j8.14528690239072448998e-003
  -3.53058619731546063925e-002-j2.02470308934110526655e-002
  -4.50435068072264632733e-002-j2.93648353064388696609e-002
  -4.74246115568300319332e-002-j3.84274449836184486817e-002
  -6.41993334154110639744e-002-j4.47424025210203663017e-002
</dep>
