<Qucs Dataset 0.0.19>
<indep frequency 10>
  +5.60000000000000000000e+009
  +5.62222222222222232819e+009
  +5.64444444444444465637e+009
  +5.66666666666666698456e+009
  +5.68888888888888931274e+009
  +5.71111111111111068726e+009
  +5.73333333333333301544e+009
  +5.75555555555555534363e+009
  +5.77777777777777767181e+009
  +5.80000000000000000000e+009
</indep>
<indep acfrequency 10>
  +5.60000000000000000000e+009
  +5.62222222222222232819e+009
  +5.64444444444444465637e+009
  +5.66666666666666698456e+009
  +5.68888888888888931274e+009
  +5.71111111111111068726e+009
  +5.73333333333333301544e+009
  +5.75555555555555534363e+009
  +5.77777777777777767181e+009
  +5.80000000000000000000e+009
</indep>
<dep SWR frequency>
  +1.24386291756374967044e+000
  +1.27837575265689307180e+000
  +1.32038547077700307852e+000
  +1.35789639916831594846e+000
  +1.40396490426079068037e+000
  +1.46241489637816735048e+000
  +1.52190675394981655977e+000
  +1.58264841405229872429e+000
  +1.64428204912327280418e+000
  +1.70380409743242311471e+000
</dep>
<dep ZofS11 frequency>
  +6.09532500737243410072e+001-j5.07298201167384998911e+000
  +5.98334979407207185886e+001-j9.20069489041458510314e+000
  +5.78986734792842767661e+001-j1.27539516976683948712e+001
  +5.53089394266022367219e+001-j1.52538088955698061255e+001
  +5.26895294152339914717e+001-j1.72910567759997597648e+001
  +5.02543029542633803430e+001-j1.91659308967684616221e+001
  +4.81047750618031955128e+001-j2.06613431156799585153e+001
  +4.63249674032424678671e+001-j2.19847903207447608054e+001
  +4.46051701514072362897e+001-j2.31068183305297623065e+001
  +4.25467929770507709009e+001-j2.37259925747999318446e+001
</dep>
<dep dBS21 frequency>
  -3.31504715553707711706e+001
  -3.18299801842668657059e+001
  -3.06681003798931044457e+001
  -2.96204255753936820383e+001
  -2.86760983014891550624e+001
  -2.78273185732050656327e+001
  -2.70753059817034404944e+001
  -2.64276832696288082047e+001
  -2.58398006796424262177e+001
  -2.52478885887107509234e+001
</dep>
<dep dBS11 frequency>
  -1.92770111206393934822e+001
  -1.82598789157797405380e+001
  -1.71977464898217320410e+001
  -1.63753478058646564364e+001
  -1.54916897406830660344e+001
  -1.45265882724705157614e+001
  -1.36827221537327972101e+001
  -1.29331743869339437225e+001
  -1.22646349100019058653e+001
  -1.16904686191015727559e+001
</dep>
<dep S[1,1] frequency>
  +1.00599687175959268126e-001-j4.11221988109269909195e-002
  +9.58754908717952408770e-002-j7.57380390081372478761e-002
  +8.59752634785502511949e-002-j1.08040506561990212742e-001
  +6.99268605664475351169e-002-j1.34719407536243979129e-001
  +5.30395411836413754880e-002-j1.59450989319572855596e-001
  +3.77057149309028560857e-002-j1.83964829703154586493e-001
  +2.39727373682993849524e-002-j2.05556091951563213449e-001
  +1.32489098573141117487e-002-j2.25211763890231203566e-001
  +2.48271831587032476563e-003-j2.43638382263363123537e-001
  -1.38968036520322191230e-002-j2.59930217582220235428e-001
</dep>
<dep S[1,2] frequency>
  -1.62925292819369564590e-002+j1.45259004948824609754e-002
  -1.84014982482431678490e-002+j1.77305913101191946202e-002
  -2.02662956502634265810e-002+j2.12190424635392248243e-002
  -2.18494315858905469030e-002+j2.46427596282427566199e-002
  -2.32800388153295012561e-002+j2.82418565017353156987e-002
  -2.45258730178314343640e-002+j3.23324048361059018797e-002
  -2.56202911095736278468e-002+j3.61861600548341114103e-002
  -2.65245661962347431539e-002+j3.95065115574551942168e-002
  -2.73216051159617806521e-002+j4.28606810878232810658e-002
  -2.77957304261462478934e-002+j4.70605929593971988867e-002
</dep>
<dep S[2,1] frequency>
  -1.63110995002625630557e-002+j1.47671199721147242134e-002
  -1.83779654132777414688e-002+j1.78437285173005250050e-002
  -2.02489393676175029324e-002+j2.11516725871362526457e-002
  -2.17889931087283349187e-002+j2.48308914094305423215e-002
  -2.31704412374909608785e-002+j2.86275761019353924830e-002
  -2.44762905020291347824e-002+j3.24051156397321266089e-002
  -2.55712914150055051210e-002+j3.61534516546175785368e-002
  -2.64351172513475410342e-002+j3.97177035347513820995e-002
  -2.71297906851403723694e-002+j4.32463596165560543172e-002
  -2.76846488914340022047e-002+j4.71210631486374750820e-002
</dep>
<dep S[2,2] frequency>
  -9.98000057837703180574e-001+j5.47272090293740992584e-002
  -9.97281998476611919457e-001+j6.40022604505704750810e-002
  -9.96450334128377468446e-001+j7.32973279511859310276e-002
  -9.95516485638634152089e-001+j8.26116699520207248275e-002
  -9.94470152969215592798e-001+j9.19511699047747405045e-002
  -9.93290167668942736157e-001+j1.01316734616430814686e-001
  -9.92010945428188684048e-001+j1.10708811151974909071e-001
  -9.90659608767666011175e-001+j1.20120426056831652861e-001
  -9.89205273254754713363e-001+j1.29566596655756038903e-001
  -9.87585726019206355808e-001+j1.39054791596294552436e-001
</dep>
<dep _net5.v acfrequency>
  -4.52558531410041965659e-003+j2.19760364109799696819e-002
  -4.95211539680420666926e-003+j2.58819742487486105509e-002
  -5.28077395174276868761e-003+j2.98673964427567453783e-002
  -5.47247288413034698590e-003+j3.39763211544587620527e-002
  -5.57844569719651278000e-003+j3.81303474788136434470e-002
  -5.61824737743813959479e-003+j4.22865619741445292190e-002
  -5.55999147850232220552e-003+j4.64419252795064824157e-002
  -5.40582701966256864989e-003+j5.05452546450561590596e-002
  -5.16560077745530869114e-003+j5.46482551007587413761e-002
  -4.82891654423142635544e-003+j5.88739746322651663624e-002
</dep>
<dep _net2.v acfrequency>
  +2.15746062743253308458e-001-j1.57154446414299070467e-001
  +2.08655467669370625616e-001-j1.62655591786543207711e-001
  +2.00066918842793567412e-001-j1.66868536714767368156e-001
  +1.89801804553550834687e-001-j1.68384179371243197787e-001
  +1.79738407002601935369e-001-j1.69396307727955719447e-001
  +1.70788843669047840645e-001-j1.70763226517142818750e-001
  +1.63117761323477772351e-001-j1.71509884850127081179e-001
  +1.57216065332681231848e-001-j1.72288353153315337840e-001
  +1.51604218785905409117e-001-j1.72820445784073128959e-001
  +1.43936880001843736654e-001-j1.71878177842417934063e-001
</dep>
<dep _net1.v acfrequency>
  +3.42888030216893513469e-001-j8.41048800080022168624e-003
  +3.40727193628588720387e-001-j1.83435655978828673907e-002
  +3.37006766120449385848e-001-j2.74553576341643110204e-002
  +3.31431183979192689470e-001-j3.48092924585692506390e-002
  +3.25638546968541886528e-001-j4.14919709519913984530e-002
  +3.20395597981463498005e-001-j4.79503829714228446690e-002
  +3.15706763777842125407e-001-j5.35594751941267446793e-002
  +3.12029634870373717703e-001-j5.87251570827869648350e-002
  +3.08373020333699843221e-001-j6.34914839087372812054e-002
  +3.03043429105714634542e-001-j6.73152858473182458265e-002
</dep>
<dep _net0.v acfrequency>
  +2.76306102099712000419e-002-j3.94457111631196983594e-004
  +2.68495022764637901458e-002-j1.18746598623683044527e-003
  +2.60057709855764235263e-002-j1.88434976705430029184e-003
  +2.50783594440079637966e-002-j2.42228001189712235583e-003
  +2.41921763046375366824e-002-j2.89150309539440908066e-003
  +2.33989980322542659441e-002-j3.32931481440992219772e-003
  +2.26921778402246511475e-002-j3.69378484356296457602e-003
  +2.20985248062774419786e-002-j4.01800642173815239500e-003
  +2.15425253206291862640e-002-j4.30825646227999022042e-003
  +2.09044245475444659399e-002-j4.52992861742026759614e-003
</dep>
<indep _net5.V 1>
  +0.00000000000000000000e+000
</indep>
<indep _net2.V 1>
  +0.00000000000000000000e+000
</indep>
<indep _net1.V 1>
  +0.00000000000000000000e+000
</indep>
<indep _net0.V 1>
  +0.00000000000000000000e+000
</indep>
