<Qucs Dataset 0.0.19>
<indep SWR_band 1>
  +3.99923369161587487497e+001
</indep>
<indep frequency 10>
  +5.60000000000000000000e+009
  +5.64444444444444465637e+009
  +5.68888888888888931274e+009
  +5.73333333333333301544e+009
  +5.77777777777777767181e+009
  +5.82222222222222232819e+009
  +5.86666666666666698456e+009
  +5.91111111111111068726e+009
  +5.95555555555555534363e+009
  +6.00000000000000000000e+009
</indep>
<dep ZofS11 frequency>
  +6.65644076402767659317e+000+j8.93328816950737376601e+001
  +7.57527663003635165495e+000+j1.01597478379761682277e+002
  +9.31956639441273537727e+000+j1.18245969446298175853e+002
  +1.20405948425941620172e+001+j1.39045840354273991579e+002
  +1.56137549167105724734e+001+j1.63743298195869670053e+002
  +2.19633271568061658741e+001+j1.98943395164798459973e+002
  +3.45836493999768634922e+001+j2.52318440243955251390e+002
  +5.99630040328152915663e+001+j3.32284836163296063205e+002
  +1.13203676674199229524e+002+j4.59554608488092981133e+002
  +3.81660481205469011456e+002+j7.78130051244092669549e+002
</dep>
<dep dBS11 frequency>
  -5.50082571495514316418e-001
  -5.11467018417553376253e-001
  -4.89072560012331625234e-001
  -4.76315650412132196578e-001
  -4.59288477523990268381e-001
  -4.48629655641659463861e-001
  -4.46335105992806346897e-001
  -4.47427785192918481272e-001
  -4.34468262735844934497e-001
  -4.40243381299967762033e-001
</dep>
<dep SWR frequency>
  +3.15908664712418953968e+001
  +3.39744264386039205306e+001
  +3.55292243316768932004e+001
  +3.64802886458622595001e+001
  +3.78320546061555162964e+001
  +3.87304781779150957277e+001
  +3.89294981600328426907e+001
  +3.88344689355633789773e+001
  +3.99923369161587487497e+001
  +3.94679370616941156413e+001
</dep>
<dep S[1,1] frequency>
  +4.93701155516579226479e-001+j7.98305261796587450895e-001
  +5.77799771789510807629e-001+j7.45015587735241124889e-001
  +6.61048873113788348910e-001+j6.75655724235880161821e-001
  +7.32385021023231996828e-001+j5.99780671633227457917e-001
  +7.89138778461975887168e-001+j5.26217588371133193625e-001
  +8.39213947028994433630e-001+j4.44494780007870571303e-001
  +8.80563602283831126094e-001+j3.56286419347953464687e-001
  +9.10238000840477234910e-001+j2.71241691210173441196e-001
  +9.31376821619899430971e-001+j1.93231540589803435504e-001
  +9.45484827845896047549e-001+j9.82714321760247283555e-002
</dep>
