<Qucs Dataset 0.0.19>
<indep SWR_band 1>
  +1.37642049385537088568e+001
</indep>
<indep OM3l 1>
  +9.35454399999999935966e-003
</indep>
<indep Gl 1>
  +2.29177299999999998723e-003
</indep>
<indep SM2l 1>
  +1.61540399999999997188e-003
</indep>
<indep SM1l 1>
  +6.18853000000000024600e-003
</indep>
<indep OM2l 1>
  +2.75574399999999990196e-002
</indep>
<indep OM1l 1>
  +2.45960700000000011267e-002
</indep>
<indep SM2w 1>
  +3.09378999999999990816e-003
</indep>
<indep Gw 1>
  +1.45914399999999989249e-003
</indep>
<indep OM3w 1>
  +4.61526299999999965740e-003
</indep>
<indep SM1w 1>
  +3.92848799999999994531e-003
</indep>
<indep OM2w 1>
  +3.57519200000000004006e-003
</indep>
<indep OM1w 1>
  +5.94861600000000032007e-003
</indep>
<indep frequency 10>
  +5.60000000000000000000e+009
  +5.63333333333333301544e+009
  +5.66666666666666698456e+009
  +5.70000000000000000000e+009
  +5.73333333333333301544e+009
  +5.76666666666666698456e+009
  +5.80000000000000000000e+009
  +5.83333333333333301544e+009
  +5.86666666666666698456e+009
  +5.90000000000000000000e+009
</indep>
<dep ZofS11 frequency>
  +4.17437896943146036222e+000-j1.91143307551341266048e+001
  +3.93361701889075598970e+000-j1.37871921889979685005e+001
  +3.88766239101035759873e+000-j7.72521372816066431710e+000
  +3.85219179459124827503e+000-j2.02956435445771310455e+000
  +3.96491768430263435974e+000+j4.05804061755580125492e+000
  +4.08656265244833516448e+000+j9.81374174053714121158e+000
  +4.18698824903359856364e+000+j1.53301763999731317512e+001
  +4.57920302022385161678e+000+j2.24035675729030927528e+001
  +5.03810192473030138416e+000+j2.95301581684173477527e+001
  +5.66300290086087443342e+000+j3.72268519834390687606e+001
</dep>
<dep dBS11 frequency>
  -1.26665285223538837123e+000
  -1.27185525659539822030e+000
  -1.32158146684384947278e+000
  -1.33881822084619894753e+000
  -1.37132391090797067790e+000
  -1.36965234105088029537e+000
  -1.33157397668996768658e+000
  -1.32598164047934696796e+000
  -1.29761891416235819463e+000
  -1.26432592836048596219e+000
</dep>
<dep SWR frequency>
  +1.37390083505605655745e+001
  +1.36830093281189792975e+001
  +1.31700394449214126524e+001
  +1.30011371198307355002e+001
  +1.26941914634028201192e+001
  +1.27096197475101000407e+001
  +1.30715894641922005803e+001
  +1.31265040791845279955e+001
  +1.34123173341798604952e+001
  +1.37642049385537088568e+001
</dep>
<dep S[1,1] frequency>
  -6.41537925731825220410e-001-j5.79183360408057401614e-001
  -7.40399468280034445122e-001-j4.44902887681390857288e-001
  -8.18342771085687537003e-001-j2.60673518100800361008e-001
  -8.54300855375709655704e-001-j6.98843035556627883986e-002
  -8.42636172329361277100e-001+j1.38562102038842893670e-001
  -7.89958469065778490226e-001+j3.24779192469233757290e-001
  -7.08698169596889915312e-001+j4.83412073648486984023e-001
  -5.68003277993535782286e-001+j6.43631006851548059799e-001
  -4.10791007486293158202e-001+j7.56946190670350627094e-001
  -2.41311686008639419976e-001+j8.30176670178211617568e-001
</dep>
