<Qucs Dataset 0.0.19>
<indep SWR_band 1>
  +6.05410474142203280934e+000
</indep>
<indep frequency 10>
  +5.60000000000000000000e+009
  +5.63333333333333301544e+009
  +5.66666666666666698456e+009
  +5.70000000000000000000e+009
  +5.73333333333333301544e+009
  +5.76666666666666698456e+009
  +5.80000000000000000000e+009
  +5.83333333333333301544e+009
  +5.86666666666666698456e+009
  +5.90000000000000000000e+009
</indep>
<dep ZofS11 frequency>
  +8.59955973119365779667e+000-j1.00100896349318162493e+001
  +8.37042167094594624643e+000-j5.55400321726716850179e+000
  +9.17051425559606414595e+000+j1.62233453079408840303e+000
  +9.79219533558290144981e+000+j8.10150770451132551386e+000
  +1.12791858784192147169e+001+j1.63614655783457862981e+001
  +1.24825342454960743765e+001+j2.34005752465428038533e+001
  +1.31011183946681661894e+001+j2.90003511311560124852e+001
  +1.65978372850880617762e+001+j4.12487770743625716818e+001
  +2.04005312495366517567e+001+j5.30468438287458994296e+001
  +2.55721247907874129623e+001+j6.62454110533548856665e+001
</dep>
<dep dBS11 frequency>
  -2.89595331804400490938e+000
  -2.89833680571273344384e+000
  -3.21904090730190484138e+000
  -3.35285833727653637126e+000
  -3.57296042885830456015e+000
  -3.57341951542579083778e+000
  -3.40371338440837245543e+000
  -3.38124815211549378802e+000
  -3.23394646657499018616e+000
  -3.06623738163705628068e+000
</dep>
<dep SWR frequency>
  +6.05410474142203280934e+000
  +6.04921715838789264552e+000
  +5.45819659863141293243e+000
  +5.24536112544548327463e+000
  +4.93037892214784889688e+000
  +4.92976302163508339760e+000
  +5.16891726914592641862e+000
  +5.20239926661352214410e+000
  +5.43360735578856424155e+000
  +5.72421748011664455191e+000
</dep>
<dep S[1,1] frequency>
  -6.58113494956956923687e-001-j2.83242140138022957530e-001
  -6.97824849564643745481e-001-j1.61549709714224193347e-001
  -6.88761426157346701160e-001+j4.63023857472900646215e-002
  -6.42308379316616329113e-001+j2.22523590470996485147e-001
  -5.23283155717126691187e-001+j4.06714687231459093297e-001
  -4.03580200498552810195e-001+j5.25660242385119880204e-001
  -3.08399501923656726987e-001+j6.01321275136413868623e-001
  -8.52326704128947842953e-002+j6.72161774624172703163e-001
  +9.39678626206175149349e-002+j6.82695775761000045456e-001
  +2.51731545632351116915e-001+j6.55921101531422801045e-001
</dep>
